Title: lateral pnp wilson current mirror spice testbench
Date: Fri Jul  3 17:11:17  2020
Plotname: DC transfer characteristic
Flags: real
No. Variables: 7
No. Points: 51
Variables:
	0	n2	voltage
	1	n1	voltage
	2	n3	voltage
	3	n_pos	voltage
	4	v-sweep	voltage
	5	i(v1)	current
	6	i(v2)	current
Values:
 0	0.000000000000000e+00
	4.288245004785737e+00
	3.579752960868912e+00
	5.000000000000000e+00
	0.000000000000000e+00
	-1.002112133566685e-04
	4.853621400147484e-05

 1	1.000000000000000e-01
	4.288247400759822e+00
	3.579671866003459e+00
	5.000000000000000e+00
	1.000000000000000e-01
	-1.002055321700224e-04
	4.852802622511203e-05

 2	2.000000000000000e-01
	4.288249740965420e+00
	3.579589078080024e+00
	5.000000000000000e+00
	2.000000000000000e-01
	-1.001998248250438e-04
	4.851980729466939e-05

 3	3.000000000000000e-01
	4.288252088447289e+00
	3.579506173790126e+00
	5.000000000000000e+00
	3.000000000000000e-01
	-1.001940996705614e-04
	4.851156259820397e-05

 4	4.000000000000000e-01
	4.288254450185541e+00
	3.579423038151557e+00
	5.000000000000000e+00
	4.000000000000000e-01
	-1.001883396456876e-04
	4.850326745763469e-05

 5	5.000000000000000e-01
	4.288256826306982e+00
	3.579339670031831e+00
	5.000000000000000e+00
	5.000000000000000e-01
	-1.001825444414822e-04
	4.849492142550388e-05

 6	6.000000000000000e-01
	4.288259216939340e+00
	3.579256068256671e+00
	5.000000000000000e+00
	6.000000000000000e-01
	-1.001767137466247e-04
	4.848652405181674e-05

 7	7.000000000000000e-01
	4.288261622211800e+00
	3.579172231644712e+00
	5.000000000000000e+00
	7.000000000000000e-01
	-1.001708472463739e-04
	4.847807488087333e-05

 8	7.999999999999999e-01
	4.288264042255038e+00
	3.579088159006369e+00
	5.000000000000000e+00
	7.999999999999999e-01
	-1.001649446223732e-04
	4.846957345189533e-05

 9	8.999999999999999e-01
	4.288266477201245e+00
	3.579003849143875e+00
	5.000000000000000e+00
	8.999999999999999e-01
	-1.001590055525331e-04
	4.846101929882433e-05

 10	9.999999999999999e-01
	4.288268927184127e+00
	3.578919300851132e+00
	5.000000000000000e+00
	9.999999999999999e-01
	-1.001530297110795e-04
	4.845241195035625e-05

 11	1.100000000000000e+00
	4.288271392338942e+00
	3.578834512913747e+00
	5.000000000000000e+00
	1.100000000000000e+00
	-1.001470167685745e-04
	4.844375092970666e-05

 12	1.200000000000000e+00
	4.288273872802534e+00
	3.578749484109005e+00
	5.000000000000000e+00
	1.200000000000000e+00
	-1.001409663916805e-04
	4.843503575454396e-05

 13	1.300000000000000e+00
	4.288276368713320e+00
	3.578664213205609e+00
	5.000000000000000e+00
	1.300000000000000e+00
	-1.001348782433270e-04
	4.842626593709793e-05

 14	1.400000000000000e+00
	4.288278880211355e+00
	3.578578698963728e+00
	5.000000000000000e+00
	1.400000000000000e+00
	-1.001287519822799e-04
	4.841744098396271e-05

 15	1.500000000000000e+00
	4.288281407438311e+00
	3.578492940135273e+00
	5.000000000000000e+00
	1.500000000000000e+00
	-1.001225872636693e-04
	4.840856039557630e-05

 16	1.600000000000000e+00
	4.288283950537534e+00
	3.578406935462973e+00
	5.000000000000000e+00
	1.600000000000000e+00
	-1.001163837383648e-04
	4.839962366720357e-05

 17	1.700000000000000e+00
	4.288286509654048e+00
	3.578320683681220e+00
	5.000000000000000e+00
	1.700000000000000e+00
	-1.001101410533084e-04
	4.839063028773058e-05

 18	1.800000000000000e+00
	4.288289084934606e+00
	3.578234183515381e+00
	5.000000000000000e+00
	1.800000000000000e+00
	-1.001038588511402e-04
	4.838157974034005e-05

 19	1.900000000000001e+00
	4.288291676527670e+00
	3.578147433682085e+00
	5.000000000000000e+00
	1.900000000000001e+00
	-1.000975367704618e-04
	4.837247150196429e-05

 20	2.000000000000000e+00
	4.288294284583483e+00
	3.578060432888829e+00
	5.000000000000000e+00
	2.000000000000000e+00
	-1.000911744455310e-04
	4.836330504363233e-05

 21	2.100000000000001e+00
	4.288296909254058e+00
	3.577973179834246e+00
	5.000000000000000e+00
	2.100000000000001e+00
	-1.000847715063383e-04
	4.835407982991006e-05

 22	2.200000000000001e+00
	4.288299550693232e+00
	3.577885673207907e+00
	5.000000000000000e+00
	2.200000000000001e+00
	-1.000783275784123e-04
	4.834479531904334e-05

 23	2.300000000000001e+00
	4.288302209056654e+00
	3.577797911689963e+00
	5.000000000000000e+00
	2.300000000000001e+00
	-1.000718422830005e-04
	4.833545096312106e-05

 24	2.400000000000001e+00
	4.288304884501878e+00
	3.577709893951579e+00
	5.000000000000000e+00
	2.400000000000001e+00
	-1.000653152366249e-04
	4.832604620745281e-05

 25	2.500000000000001e+00
	4.288307577188312e+00
	3.577621618654507e+00
	5.000000000000000e+00
	2.500000000000001e+00
	-1.000587460514360e-04
	4.831658049083733e-05

 26	2.600000000000001e+00
	4.288310287277290e+00
	3.577533084451110e+00
	5.000000000000000e+00
	2.600000000000001e+00
	-1.000521343348937e-04
	4.830705324535825e-05

 27	2.700000000000001e+00
	4.288313014932113e+00
	3.577444289984248e+00
	5.000000000000000e+00
	2.700000000000001e+00
	-1.000454796896977e-04
	4.829746389639405e-05

 28	2.800000000000001e+00
	4.288315760318058e+00
	3.577355233887369e+00
	5.000000000000000e+00
	2.800000000000001e+00
	-1.000387817137113e-04
	4.828781186223428e-05

 29	2.900000000000001e+00
	4.288318523602412e+00
	3.577265914784074e+00
	5.000000000000000e+00
	2.900000000000001e+00
	-1.000320400001004e-04
	4.827809655443601e-05

 30	3.000000000000001e+00
	4.288321304954572e+00
	3.577176331288697e+00
	5.000000000000000e+00
	3.000000000000001e+00
	-1.000252541367291e-04
	4.826831737697905e-05

 31	3.100000000000001e+00
	4.288324104546139e+00
	3.577086482005885e+00
	5.000000000000000e+00
	3.100000000000001e+00
	-1.000184237063065e-04
	4.825847372649534e-05

 32	3.200000000000002e+00
	4.288326922551406e+00
	3.576996365531637e+00
	5.000000000000000e+00
	3.200000000000002e+00
	-1.000115482849007e-04
	4.824856499088554e-05

 33	3.300000000000002e+00
	4.288329759149790e+00
	3.576905980458192e+00
	5.000000000000000e+00
	3.300000000000002e+00
	-1.000046274360483e-04
	4.823859054313342e-05

 34	3.400000000000002e+00
	4.288332614551501e+00
	3.576815325424658e+00
	5.000000000000000e+00
	3.400000000000002e+00
	-9.999766064703458e-05
	4.822854968010264e-05

 35	3.500000000000002e+00
	4.288335489185600e+00
	3.576724399493445e+00
	5.000000000000000e+00
	3.500000000000002e+00
	-9.999064686249531e-05
	4.821844116781847e-05

 36	3.600000000000002e+00
	4.288338384911524e+00
	3.576633204571578e+00
	5.000000000000000e+00
	3.600000000000002e+00
	-9.998358147964709e-05
	4.820826030928118e-05

 37	3.700000000000002e+00
	4.288341313554595e+00
	3.576541762460571e+00
	5.000000000000000e+00
	3.700000000000002e+00
	-9.997643518055294e-05
	4.819797782835023e-05

 38	3.800000000000002e+00
	4.288344356355220e+00
	3.576450232745350e+00
	5.000000000000000e+00
	3.800000000000002e+00
	-9.996900650726531e-05
	4.818737098324227e-05

 39	3.900000000000002e+00
	4.288348097415658e+00
	3.576359730629236e+00
	5.000000000000000e+00
	3.900000000000002e+00
	-9.995984709169209e-05
	4.817375405836381e-05

 40	4.000000000000002e+00
	4.288357673463563e+00
	3.576278072246088e+00
	5.000000000000000e+00
	4.000000000000002e+00
	-9.993622297830435e-05
	4.808356282661515e-05

 41	4.100000000000001e+00
	4.288460313364356e+00
	3.576263551991994e+00
	5.000000000000000e+00
	4.100000000000001e+00
	-9.968204320798951e-05
	4.481977483152509e-05

 42	4.200000000000001e+00
	4.291097744748279e+00
	3.576850646947255e+00
	5.000000000000000e+00
	4.200000000000001e+00
	-9.330776571657429e-05
	-5.731467789491570e-05

 43	4.300000000000001e+00
	4.313529979504970e+00
	3.588579396556487e+00
	5.000000000000000e+00
	4.300000000000001e+00
	-5.038486487431160e-05
	-5.410595333855206e-04

 44	4.400000000000000e+00
	4.369469833659032e+00
	3.639058073153004e+00
	5.000000000000000e+00
	4.400000000000000e+00
	-7.583100599700687e-06
	-9.444339531724747e-04

 45	4.500000000000000e+00
	4.462289553353733e+00
	3.731144168351959e+00
	5.000000000000000e+00
	4.500000000000000e+00
	-2.209257336655002e-07
	-1.012511370790515e-03

 46	4.600000000000000e+00
	4.562238519587444e+00
	3.831158797014936e+00
	5.000000000000000e+00
	4.600000000000000e+00
	-4.870138528567658e-09
	-1.013519383386230e-03

 47	4.699999999999999e+00
	4.662233682785985e+00
	3.931153604868257e+00
	5.000000000000000e+00
	4.699999999999999e+00
	-1.212059480559802e-10
	-1.013564355950800e-03

 48	4.799999999999999e+00
	4.762234030477774e+00
	4.031154091371277e+00
	5.000000000000000e+00
	4.799999999999999e+00
	-4.850682355783675e-12
	-1.013562042333159e-03

 49	4.899999999999999e+00
	4.862234024885582e+00
	4.131154086500167e+00
	5.000000000000000e+00
	4.899999999999999e+00
	-6.384129336289845e-13
	-1.013562086252493e-03

 50	4.999999999999998e+00
	4.962234023037874e+00
	4.231154084854268e+00
	5.000000000000000e+00
	4.999999999999998e+00
	-1.241992619860355e-13
	-1.013562100963740e-03

