Title: wilson current mirror simulation testbench
Date: Fri Jul  3 16:30:48  2020
Plotname: DC transfer characteristic
Flags: real
No. Variables: 7
No. Points: 51
Variables:
	0	n2	voltage
	1	n1	voltage
	2	n3	voltage
	3	n_pos	voltage
	4	v-sweep	voltage
	5	i(v1)	current
	6	i(v2)	current
Values:
 0	0.000000000000000e+00
	1.230599008481195e-03
	6.271838252729696e-01
	5.000000000000000e+00
	0.000000000000000e+00
	-5.000000000000000e-05
	1.604039241488354e-05

 1	1.000000000000000e-01
	1.012305966807130e-01
	7.271838250303519e-01
	5.000000000000000e+00
	1.000000000000000e-01
	-5.000000000000000e-05
	1.604039111410840e-05

 2	2.000000000000000e-01
	2.012305915646617e-01
	8.271838242803915e-01
	5.000000000000000e+00
	2.000000000000000e-01
	-5.000000000000000e-05
	1.604038863358282e-05

 3	3.000000000000000e-01
	3.012304666461323e-01
	9.271838004524542e-01
	5.000000000000000e+00
	3.000000000000000e-01
	-5.000000000000000e-05
	1.604033454212413e-05

 4	4.000000000000000e-01
	4.012248186170473e-01
	1.027182691374727e+00
	5.000000000000000e+00
	4.000000000000000e-01
	-5.000000000000000e-05
	1.603789078426892e-05

 5	5.000000000000000e-01
	5.009639373048812e-01
	1.127131074037051e+00
	5.000000000000000e+00
	5.000000000000000e-01
	-5.000000000000000e-05
	1.592481810514880e-05

 6	6.000000000000000e-01
	5.929348452311635e-01
	1.225309926765861e+00
	5.000000000000000e+00
	6.000000000000000e-01
	-5.000000000000000e-05
	1.205785594422872e-05

 7	7.000000000000000e-01
	6.490627253821820e-01
	1.305229998623046e+00
	5.000000000000000e+00
	7.000000000000000e-01
	-5.000000000000000e-05
	-1.857217264752158e-05

 8	7.999999999999999e-01
	6.652892558897848e-01
	1.330742150642960e+00
	5.000000000000000e+00
	7.999999999999999e-01
	-5.000000000000000e-05
	-4.735378207153876e-05

 9	8.999999999999999e-01
	6.656578482751665e-01
	1.331549483869388e+00
	5.000000000000000e+00
	8.999999999999999e-01
	-5.000000000000000e-05
	-4.932498026104489e-05

 10	9.999999999999999e-01
	6.654139375895357e-01
	1.331214803556441e+00
	5.000000000000000e+00
	9.999999999999999e-01
	-5.000000000000000e-05
	-4.940152216314403e-05

 11	1.100000000000000e+00
	6.654106671325930e-01
	1.331156110796392e+00
	5.000000000000000e+00
	1.100000000000000e+00
	-5.000000000000000e-05
	-4.940938528069556e-05

 12	1.200000000000000e+00
	6.654102150345061e-01
	1.331108271532588e+00
	5.000000000000000e+00
	1.200000000000000e+00
	-5.000000000000000e-05
	-4.941174620384280e-05

 13	1.300000000000000e+00
	6.654106802054638e-01
	1.331061364532657e+00
	5.000000000000000e+00
	1.300000000000000e+00
	-5.000000000000000e-05
	-4.941341164964233e-05

 14	1.400000000000000e+00
	6.654111172436934e-01
	1.331014505449096e+00
	5.000000000000000e+00
	1.400000000000000e+00
	-5.000000000000000e-05
	-4.941497370807668e-05

 15	1.500000000000000e+00
	6.654115489155085e-01
	1.330967726024553e+00
	5.000000000000000e+00
	1.500000000000000e+00
	-5.000000000000000e-05
	-4.941651612687858e-05

 16	1.600000000000000e+00
	6.654119784940510e-01
	1.330921030693077e+00
	5.000000000000000e+00
	1.600000000000000e+00
	-5.000000000000000e-05
	-4.941805096670929e-05

 17	1.700000000000000e+00
	6.654124064854604e-01
	1.330874419868654e+00
	5.000000000000000e+00
	1.700000000000000e+00
	-5.000000000000000e-05
	-4.941958008337754e-05

 18	1.800000000000000e+00
	6.654128329538621e-01
	1.330827893325741e+00
	5.000000000000000e+00
	1.800000000000000e+00
	-5.000000000000000e-05
	-4.942110371156095e-05

 19	1.900000000000001e+00
	6.654132579155445e-01
	1.330781450771108e+00
	5.000000000000000e+00
	1.900000000000001e+00
	-5.000000000000000e-05
	-4.942262191046223e-05

 20	2.000000000000000e+00
	6.654136813805870e-01
	1.330735091904299e+00
	5.000000000000000e+00
	2.000000000000000e+00
	-5.000000000000000e-05
	-4.942413471656957e-05

 21	2.100000000000001e+00
	6.654141033576855e-01
	1.330688816424542e+00
	5.000000000000000e+00
	2.100000000000001e+00
	-5.000000000000000e-05
	-4.942564216122943e-05

 22	2.200000000000001e+00
	6.654145238550720e-01
	1.330642624032135e+00
	5.000000000000000e+00
	2.200000000000001e+00
	-5.000000000000000e-05
	-4.942714427415415e-05

 23	2.300000000000001e+00
	6.654149428807887e-01
	1.330596514428782e+00
	5.000000000000000e+00
	2.300000000000001e+00
	-5.000000000000000e-05
	-4.942864108434137e-05

 24	2.400000000000001e+00
	6.654153604427732e-01
	1.330550487317736e+00
	5.000000000000000e+00
	2.400000000000001e+00
	-5.000000000000000e-05
	-4.943013262043484e-05

 25	2.500000000000001e+00
	6.654157765488621e-01
	1.330504542403783e+00
	5.000000000000000e+00
	2.500000000000001e+00
	-5.000000000000000e-05
	-4.943161891064812e-05

 26	2.600000000000001e+00
	6.654161912068413e-01
	1.330458679393295e+00
	5.000000000000000e+00
	2.600000000000001e+00
	-5.000000000000000e-05
	-4.943309998306290e-05

 27	2.700000000000001e+00
	6.654166044244273e-01
	1.330412897994189e+00
	5.000000000000000e+00
	2.700000000000001e+00
	-5.000000000000000e-05
	-4.943457586552496e-05

 28	2.800000000000001e+00
	6.654170162092772e-01
	1.330367197915949e+00
	5.000000000000000e+00
	2.800000000000001e+00
	-5.000000000000000e-05
	-4.943604658558171e-05

 29	2.900000000000001e+00
	6.654174265689921e-01
	1.330321578869618e+00
	5.000000000000000e+00
	2.900000000000001e+00
	-5.000000000000000e-05
	-4.943751217068342e-05

 30	3.000000000000001e+00
	6.654178355111154e-01
	1.330276040567740e+00
	5.000000000000000e+00
	3.000000000000001e+00
	-5.000000000000000e-05
	-4.943897264802362e-05

 31	3.100000000000001e+00
	6.654182430431428e-01
	1.330230582724439e+00
	5.000000000000000e+00
	3.100000000000001e+00
	-5.000000000000000e-05
	-4.944042804459460e-05

 32	3.200000000000002e+00
	6.654186491725128e-01
	1.330185205055303e+00
	5.000000000000000e+00
	3.200000000000002e+00
	-5.000000000000000e-05
	-4.944187838725681e-05

 33	3.300000000000002e+00
	6.654190539066116e-01
	1.330139907277470e+00
	5.000000000000000e+00
	3.300000000000002e+00
	-5.000000000000000e-05
	-4.944332370262092e-05

 34	3.400000000000002e+00
	6.654194572527751e-01
	1.330094689109554e+00
	5.000000000000000e+00
	3.400000000000002e+00
	-5.000000000000000e-05
	-4.944476401711718e-05

 35	3.500000000000002e+00
	6.654198592182711e-01
	1.330049550271635e+00
	5.000000000000000e+00
	3.500000000000002e+00
	-5.000000000000000e-05
	-4.944619935697461e-05

 36	3.600000000000002e+00
	6.654202598103488e-01
	1.330004490485316e+00
	5.000000000000000e+00
	3.600000000000002e+00
	-5.000000000000000e-05
	-4.944762974832506e-05

 37	3.700000000000002e+00
	6.654206590361750e-01
	1.329959509473624e+00
	5.000000000000000e+00
	3.700000000000002e+00
	-5.000000000000000e-05
	-4.944905521700901e-05

 38	3.800000000000002e+00
	6.654210569028827e-01
	1.329914606961050e+00
	5.000000000000000e+00
	3.800000000000002e+00
	-5.000000000000000e-05
	-4.945047578871422e-05

 39	3.900000000000002e+00
	6.654214534175528e-01
	1.329869782673564e+00
	5.000000000000000e+00
	3.900000000000002e+00
	-5.000000000000000e-05
	-4.945189148904521e-05

 40	4.000000000000002e+00
	6.654218485872077e-01
	1.329825036338480e+00
	5.000000000000000e+00
	4.000000000000002e+00
	-5.000000000000000e-05
	-4.945330234321098e-05

 41	4.100000000000001e+00
	6.654222424188331e-01
	1.329780367684646e+00
	5.000000000000000e+00
	4.100000000000001e+00
	-5.000000000000000e-05
	-4.945470837651769e-05

 42	4.200000000000001e+00
	6.654226349193658e-01
	1.329735776442285e+00
	5.000000000000000e+00
	4.200000000000001e+00
	-5.000000000000000e-05
	-4.945610961391066e-05

 43	4.300000000000001e+00
	6.654230260956785e-01
	1.329691262342953e+00
	5.000000000000000e+00
	4.300000000000001e+00
	-5.000000000000000e-05
	-4.945750608014786e-05

 44	4.400000000000000e+00
	6.654234159546262e-01
	1.329646825119766e+00
	5.000000000000000e+00
	4.400000000000000e+00
	-5.000000000000000e-05
	-4.945889780005664e-05

 45	4.500000000000000e+00
	6.654238045029772e-01
	1.329602464507012e+00
	5.000000000000000e+00
	4.500000000000000e+00
	-5.000000000000000e-05
	-4.946028479788152e-05

 46	4.600000000000000e+00
	6.654241917474885e-01
	1.329558180240553e+00
	5.000000000000000e+00
	4.600000000000000e+00
	-5.000000000000000e-05
	-4.946166709815842e-05

 47	4.699999999999999e+00
	6.654245776948469e-01
	1.329513972057470e+00
	5.000000000000000e+00
	4.699999999999999e+00
	-5.000000000000000e-05
	-4.946304472484039e-05

 48	4.799999999999999e+00
	6.654249623517070e-01
	1.329469839696290e+00
	5.000000000000000e+00
	4.799999999999999e+00
	-5.000000000000000e-05
	-4.946441770204704e-05

 49	4.899999999999999e+00
	6.654253457246693e-01
	1.329425782896856e+00
	5.000000000000000e+00
	4.899999999999999e+00
	-5.000000000000000e-05
	-4.946578605349551e-05

 50	4.999999999999998e+00
	6.654257278202975e-01
	1.329381801400356e+00
	5.000000000000000e+00
	4.999999999999998e+00
	-5.000000000000000e-05
	-4.946714980286129e-05

