Title: dc tb
Date: Mon Jan  2 17:30:25  2023
Plotname: DC transfer characteristic
Flags: real
No. Variables: 29
No. Points: 27
Variables:
	0	n2	voltage
	1	m1#body	voltage
	2	m1#dbody	voltage
	3	m1#gate	voltage
	4	m1#sbody	voltage
	5	m2#body	voltage
	6	m2#dbody	voltage
	7	m2#gate	voltage
	8	m2#sbody	voltage
	9	m3#body	voltage
	10	m3#dbody	voltage
	11	m3#gate	voltage
	12	m3#sbody	voltage
	13	m4#body	voltage
	14	m4#dbody	voltage
	15	m4#gate	voltage
	16	m4#sbody	voltage
	17	m5#body	voltage
	18	m5#dbody	voltage
	19	m5#gate	voltage
	20	m5#sbody	voltage
	21	n1	voltage
	22	n3	voltage
	23	n4	voltage
	24	n5	voltage
	25	v-sweep	voltage
	26	i(v1)	current
	27	i(v2)	current
	28	vp	voltage
Values:
 0	1.300000000000000e+00
	1.299999999998980e+00
	1.299999999995463e+00
	7.730171972487953e-01
	1.299999999999490e+00
	1.299999999999990e+00
	1.299999999999995e+00
	7.730171972690179e-01
	1.299999999999995e+00
	1.299999999967026e+00
	1.299999999983513e+00
	2.801129067608596e-01
	1.299999999983513e+00
	1.299999999997323e+00
	1.299999999992039e+00
	2.801129046724040e-01
	1.299999999994668e+00
	1.299999999919121e+00
	1.299999999951836e+00
	2.801129046462464e-01
	1.299999999959561e+00
	7.730171972285492e-01
	2.801129046311455e-01
	1.299999994358466e+00
	4.269475176438391e-01
	0.000000000000000e+00
	-1.000000000001516e-04
	8.561641673399123e-11
	1.300000000000000e+00

 1	1.250000000000000e+00
	1.299999999998980e+00
	1.299999999995463e+00
	7.730171943526812e-01
	1.299999999999490e+00
	1.299999999999886e+00
	1.299999999999526e+00
	7.730171943670402e-01
	1.299999999999943e+00
	1.299999999986482e+00
	1.299999999992802e+00
	2.801127066803504e-01
	1.299999999992852e+00
	1.299999999997324e+00
	1.299999999992039e+00
	2.801127051491707e-01
	1.299999999994668e+00
	1.299999999919120e+00
	1.299999999951836e+00
	2.801127051230127e-01
	1.299999999959560e+00
	7.730171943324352e-01
	2.801127051079116e-01
	1.252754222625596e+00
	4.269747411375988e-01
	5.000000000000000e-02
	-1.000000000001781e-04
	-1.975710195523811e-05
	1.300000000000000e+00

 2	1.200000000000000e+00
	1.299999999998980e+00
	1.299999999995463e+00
	7.730171921863577e-01
	1.299999999999490e+00
	1.299999999999794e+00
	1.299999999999113e+00
	7.730171921963302e-01
	1.299999999999897e+00
	1.299999999994506e+00
	1.299999999996430e+00
	2.801125649078733e-01
	1.299999999996501e+00
	1.299999999997323e+00
	1.299999999992039e+00
	2.801125637715667e-01
	1.299999999994668e+00
	1.299999999919120e+00
	1.299999999951836e+00
	2.801125637454083e-01
	1.299999999959560e+00
	7.730171921661116e-01
	2.801125637303073e-01
	1.205172408585462e+00
	4.269940135329193e-01
	1.000000000000000e-01
	-9.999999999991858e-05
	-3.405552348410140e-05
	1.300000000000000e+00

 3	1.150000000000000e+00
	1.299999999998980e+00
	1.299999999995463e+00
	7.730171905884040e-01
	1.299999999999490e+00
	1.299999999999704e+00
	1.299999999998706e+00
	7.730171905951412e-01
	1.299999999999852e+00
	1.299999999997546e+00
	1.299999999997574e+00
	2.801124606007690e-01
	1.299999999997661e+00
	1.299999999997324e+00
	1.299999999992039e+00
	2.801124597549845e-01
	1.299999999994668e+00
	1.299999999919120e+00
	1.299999999951836e+00
	2.801124597288258e-01
	1.299999999959560e+00
	7.730171905681580e-01
	2.801124597137247e-01
	1.157200701668232e+00
	4.270081917314599e-01
	1.500000000000000e-01
	-9.999999999938183e-05
	-4.302588178684615e-05
	1.300000000000000e+00

 4	1.100000000000000e+00
	1.299999999998980e+00
	1.299999999995463e+00
	7.730171894320674e-01
	1.299999999999490e+00
	1.299999999999613e+00
	1.299999999998298e+00
	7.730171894364634e-01
	1.299999999999807e+00
	1.299999999998568e+00
	1.299999999997709e+00
	2.801123819472959e-01
	1.299999999997809e+00
	1.299999999997324e+00
	1.299999999992040e+00
	2.801123813205781e-01
	1.299999999994668e+00
	1.299999999919120e+00
	1.299999999951836e+00
	2.801123812944192e-01
	1.299999999959560e+00
	7.730171894118214e-01
	2.801123812793181e-01
	1.108864025719468e+00
	4.270188906411647e-01
	2.000000000000000e-01
	-9.999999999962270e-05
	-4.738481388855392e-05
	1.300000000000000e+00

 5	1.050000000000000e+00
	1.299999999998980e+00
	1.299999999995463e+00
	7.730171886181203e-01
	1.299999999999490e+00
	1.299999999999522e+00
	1.299999999997889e+00
	7.730171886208683e-01
	1.299999999999761e+00
	1.299999999998817e+00
	1.299999999997459e+00
	2.801123220336341e-01
	1.299999999997571e+00
	1.299999999997324e+00
	1.299999999992040e+00
	2.801123215737911e-01
	1.299999999994668e+00
	1.299999999919120e+00
	1.299999999951836e+00
	2.801123215476319e-01
	1.299999999959560e+00
	7.730171885978743e-01
	2.801123215325309e-01
	1.060420085077733e+00
	4.270270513070074e-01
	2.500000000000000e-01
	-1.000000000002659e-04
	-4.893632291361368e-05
	1.300000000000000e+00

 6	1.000000000000000e+00
	1.299999999998980e+00
	1.299999999995463e+00
	7.730171880648139e-01
	1.299999999999490e+00
	1.299999999999431e+00
	1.299999999997483e+00
	7.730171880664414e-01
	1.299999999999716e+00
	1.299999999998786e+00
	1.299999999997068e+00
	2.801122763665877e-01
	1.299999999997194e+00
	1.299999999997324e+00
	1.299999999992040e+00
	2.801122760339396e-01
	1.299999999994668e+00
	1.299999999919119e+00
	1.299999999951835e+00
	2.801122760077804e-01
	1.299999999959560e+00
	7.730171880445679e-01
	2.801122759926793e-01
	1.012272370117542e+00
	4.270332824366818e-01
	3.000000000000000e-01
	-9.999999999965141e-05
	-4.945302220966692e-05
	1.300000000000000e+00

 7	9.500000000000001e-01
	1.299999999998980e+00
	1.299999999995463e+00
	7.730171877035706e-01
	1.299999999999490e+00
	1.299999999999342e+00
	1.299999999997082e+00
	7.730171877044669e-01
	1.299999999999671e+00
	1.299999999998657e+00
	1.299999999996629e+00
	2.801122416904710e-01
	1.299999999996774e+00
	1.299999999997324e+00
	1.299999999992040e+00
	2.801122414544019e-01
	1.299999999994668e+00
	1.299999999919120e+00
	1.299999999951835e+00
	2.801122414282426e-01
	1.299999999959560e+00
	7.730171876833246e-01
	2.801122414131415e-01
	9.648246137493937e-01
	4.270380235296045e-01
	3.500000000000000e-01
	-9.999999999976725e-05
	-4.966960591642772e-05
	1.300000000000000e+00

 8	9.000000000000001e-01
	1.299999999998980e+00
	1.299999999995463e+00
	7.730171874806169e-01
	1.299999999999490e+00
	1.299999999999255e+00
	1.299999999996692e+00
	7.730171874810616e-01
	1.299999999999628e+00
	1.299999999998495e+00
	1.299999999996172e+00
	2.801122155630040e-01
	1.299999999996346e+00
	1.299999999997324e+00
	1.299999999992040e+00
	2.801122153997082e-01
	1.299999999994668e+00
	1.299999999919120e+00
	1.299999999951836e+00
	2.801122153735489e-01
	1.299999999959560e+00
	7.730171874603708e-01
	2.801122153584477e-01
	9.186523473203155e-01
	4.270416038811078e-01
	4.000000000000000e-01
	-9.999999999929484e-05
	-4.978855949914563e-05
	1.300000000000000e+00

 9	8.500000000000001e-01
	1.299999999998980e+00
	1.299999999995463e+00
	7.730171873542061e-01
	1.299999999999490e+00
	1.299999999999172e+00
	1.299999999996322e+00
	7.730171873543950e-01
	1.299999999999586e+00
	1.299999999998326e+00
	1.299999999995713e+00
	2.801121961353389e-01
	1.299999999995933e+00
	1.299999999997324e+00
	1.299999999992040e+00
	2.801121960261544e-01
	1.299999999994668e+00
	1.299999999919119e+00
	1.299999999951835e+00
	2.801121959999949e-01
	1.299999999959560e+00
	7.730171873339601e-01
	2.801121959848938e-01
	8.748324055523116e-01
	4.270442725954098e-01
	4.500000000000000e-01
	-1.000000000006226e-04
	-4.986737956499433e-05
	1.300000000000000e+00

 10	8.000000000000000e-01
	1.299999999998980e+00
	1.299999999995463e+00
	7.730171872918307e-01
	1.299999999999490e+00
	1.299999999999098e+00
	1.299999999995990e+00
	7.730171872918933e-01
	1.299999999999549e+00
	1.299999999998160e+00
	1.299999999995255e+00
	2.801121820325062e-01
	1.299999999995555e+00
	1.299999999997324e+00
	1.299999999992040e+00
	2.801121819626016e-01
	1.299999999994668e+00
	1.299999999919120e+00
	1.299999999951835e+00
	2.801121819364421e-01
	1.299999999959560e+00
	7.730171872715846e-01
	2.801121819213410e-01
	8.354574821642977e-01
	4.270462146832159e-01
	4.999999999999999e-01
	-1.000000000004992e-04
	-4.992423098559460e-05
	1.300000000000000e+00

 11	7.500000000000001e-01
	1.299999999998980e+00
	1.299999999995463e+00
	7.730171872676190e-01
	1.299999999999490e+00
	1.299999999999039e+00
	1.299999999995725e+00
	7.730171872676327e-01
	1.299999999999520e+00
	1.299999999998008e+00
	1.299999999994804e+00
	2.801121722520876e-01
	1.299999999995244e+00
	1.299999999997324e+00
	1.299999999992040e+00
	2.801121722094241e-01
	1.299999999994668e+00
	1.299999999919120e+00
	1.299999999951835e+00
	2.801121721832647e-01
	1.299999999959560e+00
	7.730171872473730e-01
	2.801121721681635e-01
	8.041303972083158e-01
	4.270475646658696e-01
	5.499999999999999e-01
	-1.000000000005683e-04
	-4.996394372436394e-05
	1.300000000000000e+00

 12	7.000000000000001e-01
	1.299999999998980e+00
	1.299999999995463e+00
	7.730171872620485e-01
	1.299999999999490e+00
	1.299999999999002e+00
	1.299999999995556e+00
	7.730171872620507e-01
	1.299999999999501e+00
	1.299999999997876e+00
	1.299999999994363e+00
	2.801121659578844e-01
	1.299999999995028e+00
	1.299999999997324e+00
	1.299999999992040e+00
	2.801121659327518e-01
	1.299999999994668e+00
	1.299999999919120e+00
	1.299999999951835e+00
	2.801121659065923e-01
	1.299999999959560e+00
	7.730171872418025e-01
	2.801121658914911e-01
	7.840822306076132e-01
	4.270484350973049e-01
	6.000000000000000e-01
	-1.000000000000916e-04
	-4.998744086529038e-05
	1.300000000000000e+00

 13	6.500000000000000e-01
	1.299999999998980e+00
	1.299999999995463e+00
	7.730171872610846e-01
	1.299999999999490e+00
	1.299999999998987e+00
	1.299999999995493e+00
	7.730171872610850e-01
	1.299999999999494e+00
	1.299999999997767e+00
	1.299999999993933e+00
	2.801121623241560e-01
	1.299999999994917e+00
	1.299999999997324e+00
	1.299999999992040e+00
	2.801121623091445e-01
	1.299999999994668e+00
	1.299999999919120e+00
	1.299999999951835e+00
	2.801121622829850e-01
	1.299999999959560e+00
	7.730171872408386e-01
	2.801121622678839e-01
	7.765906228381199e-01
	4.270489379776592e-01
	6.500000000000000e-01
	-1.000000000002043e-04
	-4.999597257403232e-05
	1.300000000000000e+00

 14	6.000000000000000e-01
	1.299999999998980e+00
	1.299999999995463e+00
	7.730171872610928e-01
	1.299999999999490e+00
	1.299999999998984e+00
	1.299999999995479e+00
	7.730171872610933e-01
	1.299999999999492e+00
	1.299999999997666e+00
	1.299999999993508e+00
	2.801121601529448e-01
	1.299999999994854e+00
	1.299999999997324e+00
	1.299999999992040e+00
	2.801121601439790e-01
	1.299999999994668e+00
	1.299999999919120e+00
	1.299999999951835e+00
	2.801121601178195e-01
	1.299999999959560e+00
	7.730171872408468e-01
	2.801121601027184e-01
	7.748957409383280e-01
	4.270492385516462e-01
	7.000000000000001e-01
	-9.999999999998832e-05
	-4.999792040808154e-05
	1.300000000000000e+00

 15	5.499999999999999e-01
	1.299999999998980e+00
	1.299999999995463e+00
	7.730171872609224e-01
	1.299999999999490e+00
	1.299999999998982e+00
	1.299999999995471e+00
	7.730171872609225e-01
	1.299999999999491e+00
	1.299999999997567e+00
	1.299999999993084e+00
	2.801121587025426e-01
	1.299999999994797e+00
	1.299999999997324e+00
	1.299999999992040e+00
	2.801121586976213e-01
	1.299999999994668e+00
	1.299999999919120e+00
	1.299999999951835e+00
	2.801121586714618e-01
	1.299999999959560e+00
	7.730171872406764e-01
	2.801121586563606e-01
	7.739478660330491e-01
	4.270494393110766e-01
	7.500000000000001e-01
	-9.999999999965862e-05
	-4.999894748560039e-05
	1.300000000000000e+00

 16	4.999999999999999e-01
	1.299999999998980e+00
	1.299999999995463e+00
	7.730171872609009e-01
	1.299999999999490e+00
	1.299999999998982e+00
	1.299999999995467e+00
	7.730171872609009e-01
	1.299999999999491e+00
	1.299999999997468e+00
	1.299999999992659e+00
	2.801121577470250e-01
	1.299999999994744e+00
	1.299999999997324e+00
	1.299999999992040e+00
	2.801121577447629e-01
	1.299999999994668e+00
	1.299999999919120e+00
	1.299999999951835e+00
	2.801121577186033e-01
	1.299999999959560e+00
	7.730171872406548e-01
	2.801121577035022e-01
	7.735071364770577e-01
	4.270495715859255e-01
	8.000000000000002e-01
	-9.999999999960292e-05
	-4.999944190223042e-05
	1.300000000000000e+00

 17	4.499999999999998e-01
	1.299999999998980e+00
	1.299999999995463e+00
	7.730171872608729e-01
	1.299999999999490e+00
	1.299999999998981e+00
	1.299999999995464e+00
	7.730171872608729e-01
	1.299999999999490e+00
	1.299999999997369e+00
	1.299999999992235e+00
	2.801121571321293e-01
	1.299999999994692e+00
	1.299999999997324e+00
	1.299999999992040e+00
	2.801121571315804e-01
	1.299999999994668e+00
	1.299999999919120e+00
	1.299999999951835e+00
	2.801121571054209e-01
	1.299999999959560e+00
	7.730171872406268e-01
	2.801121570903197e-01
	7.731600368415075e-01
	4.270496567048099e-01
	8.500000000000002e-01
	-9.999999999952500e-05
	-4.999983093902734e-05
	1.300000000000000e+00

 18	3.999999999999998e-01
	1.299999999998980e+00
	1.299999999995463e+00
	7.730171872608802e-01
	1.299999999999490e+00
	1.299999999998980e+00
	1.299999999995461e+00
	7.730171872608802e-01
	1.299999999999490e+00
	1.299999999997271e+00
	1.299999999991810e+00
	2.801121567569944e-01
	1.299999999994641e+00
	1.299999999997324e+00
	1.299999999992040e+00
	2.801121567574906e-01
	1.299999999994668e+00
	1.299999999919120e+00
	1.299999999951835e+00
	2.801121567313311e-01
	1.299999999959560e+00
	7.730171872406342e-01
	2.801121567162299e-01
	7.728570753930691e-01
	4.270497086381937e-01
	9.000000000000002e-01
	-1.000000000001264e-04
	-5.000017050725320e-05
	1.300000000000000e+00

 19	3.499999999999998e-01
	1.299999999998980e+00
	1.299999999995463e+00
	7.730171872609256e-01
	1.299999999999490e+00
	1.299999999998980e+00
	1.299999999995459e+00
	7.730171872609256e-01
	1.299999999999490e+00
	1.299999999997172e+00
	1.299999999991386e+00
	2.801121565487004e-01
	1.299999999994589e+00
	1.299999999997324e+00
	1.299999999992040e+00
	2.801121565497772e-01
	1.299999999994668e+00
	1.299999999919120e+00
	1.299999999951835e+00
	2.801121565236177e-01
	1.299999999959560e+00
	7.730171872406796e-01
	2.801121565085165e-01
	7.725776872929045e-01
	4.270497374809850e-01
	9.500000000000003e-01
	-9.999999999988614e-05
	-5.000048345390454e-05
	1.300000000000000e+00

 20	2.999999999999998e-01
	1.299999999998980e+00
	1.299999999995463e+00
	7.730171872608556e-01
	1.299999999999490e+00
	1.299999999998979e+00
	1.299999999995457e+00
	7.730171872608554e-01
	1.299999999999490e+00
	1.299999999997073e+00
	1.299999999990961e+00
	2.801121564520225e-01
	1.299999999994538e+00
	1.299999999997324e+00
	1.299999999992040e+00
	2.801121564533655e-01
	1.299999999994668e+00
	1.299999999919120e+00
	1.299999999951835e+00
	2.801121564272059e-01
	1.299999999959560e+00
	7.730171872406095e-01
	2.801121564121048e-01
	7.723132882879147e-01
	4.270497508534703e-01
	1.000000000000000e+00
	-1.000000000001027e-04
	-5.000077943263196e-05
	1.300000000000000e+00

 21	2.499999999999998e-01
	1.299999999998980e+00
	1.299999999995463e+00
	7.730171872608723e-01
	1.299999999999490e+00
	1.299999999998979e+00
	1.299999999995455e+00
	7.730171872608722e-01
	1.299999999999490e+00
	1.299999999996975e+00
	1.299999999990537e+00
	2.801121564080225e-01
	1.299999999994487e+00
	1.299999999997324e+00
	1.299999999992040e+00
	2.801121564094903e-01
	1.299999999994668e+00
	1.299999999919120e+00
	1.299999999951835e+00
	2.801121563833308e-01
	1.299999999959560e+00
	7.730171872406263e-01
	2.801121563682296e-01
	7.720593883703420e-01
	4.270497569471559e-01
	1.050000000000000e+00
	-9.999999999985751e-05
	-5.000106349955591e-05
	1.300000000000000e+00

 22	1.999999999999997e-01
	1.299999999998980e+00
	1.299999999995463e+00
	7.730171872608714e-01
	1.299999999999490e+00
	1.299999999998978e+00
	1.299999999995453e+00
	7.730171872608714e-01
	1.299999999999489e+00
	1.299999999996877e+00
	1.299999999990114e+00
	2.801121562954117e-01
	1.299999999994436e+00
	1.299999999997324e+00
	1.299999999992040e+00
	2.801121562971935e-01
	1.299999999994668e+00
	1.299999999919120e+00
	1.299999999951835e+00
	2.801121562710340e-01
	1.299999999959560e+00
	7.730171872406254e-01
	2.801121562559328e-01
	7.718133726900230e-01
	4.270497725364919e-01
	1.100000000000000e+00
	-9.999999999921262e-05
	-5.000133861081586e-05
	1.300000000000000e+00

 23	1.499999999999997e-01
	1.299999999998980e+00
	1.299999999995463e+00
	7.730171872608292e-01
	1.299999999999490e+00
	1.299999999998978e+00
	1.299999999995451e+00
	7.730171872608291e-01
	1.299999999999489e+00
	1.299999999996778e+00
	1.299999999989689e+00
	2.801121560625651e-01
	1.299999999994384e+00
	1.299999999997324e+00
	1.299999999992040e+00
	2.801121560649956e-01
	1.299999999994668e+00
	1.299999999919120e+00
	1.299999999951835e+00
	2.801121560388360e-01
	1.299999999959560e+00
	7.730171872405832e-01
	2.801121560237349e-01
	7.715735904795060e-01
	4.270498047637687e-01
	1.150000000000000e+00
	-1.000000000003615e-04
	-5.000160663088716e-05
	1.300000000000000e+00

 24	9.999999999999964e-02
	1.299999999998980e+00
	1.299999999995463e+00
	7.730171872608739e-01
	1.299999999999490e+00
	1.299999999998977e+00
	1.299999999995449e+00
	7.730171872608737e-01
	1.299999999999489e+00
	1.299999999996679e+00
	1.299999999989264e+00
	2.801121556521829e-01
	1.299999999994333e+00
	1.299999999997324e+00
	1.299999999992040e+00
	2.801121556557538e-01
	1.299999999994668e+00
	1.299999999919120e+00
	1.299999999951835e+00
	2.801121556295942e-01
	1.299999999959560e+00
	7.730171872406278e-01
	2.801121556144931e-01
	7.713389329109506e-01
	4.270498615831002e-01
	1.200000000000000e+00
	-1.000000000000169e-04
	-5.000186881548531e-05
	1.300000000000000e+00

 25	4.999999999999960e-02
	1.299999999998980e+00
	1.299999999995463e+00
	7.730171872607626e-01
	1.299999999999490e+00
	1.299999999998977e+00
	1.299999999995447e+00
	7.730171872607625e-01
	1.299999999999489e+00
	1.299999999996580e+00
	1.299999999988840e+00
	2.801121549914752e-01
	1.299999999994282e+00
	1.299999999997324e+00
	1.299999999992040e+00
	2.801121549968882e-01
	1.299999999994668e+00
	1.299999999919120e+00
	1.299999999951835e+00
	2.801121549707287e-01
	1.299999999959560e+00
	7.730171872405166e-01
	2.801121549556275e-01
	7.711086178130573e-01
	4.270499530300640e-01
	1.250000000000000e+00
	-1.000000000001503e-04
	-5.000212605553824e-05
	1.300000000000000e+00

 26	-4.440892098500626e-16
	1.299999999998980e+00
	1.299999999995463e+00
	7.730171872607462e-01
	1.299999999999490e+00
	1.299999999998977e+00
	1.299999999995445e+00
	7.730171872607459e-01
	1.299999999999488e+00
	1.299999999996482e+00
	1.299999999988416e+00
	2.801121539774706e-01
	1.299999999994231e+00
	1.299999999997324e+00
	1.299999999992040e+00
	2.801121539857057e-01
	1.299999999994668e+00
	1.299999999919120e+00
	1.299999999951835e+00
	2.801121539595462e-01
	1.299999999959560e+00
	7.730171872405002e-01
	2.801121539444451e-01
	7.708820711908354e-01
	4.270500934020305e-01
	1.300000000000000e+00
	-1.000000000002420e-04
	-5.000237901063673e-05
	1.300000000000000e+00

