Title: transistors characterization nmos transistor simulation testbench
Date: Sat May  6 21:28:12  2023
Plotname: DC transfer characteristic
Flags: real
No. Variables: 46
No. Points: 3
Variables:
	0	veff	notype
	1	@m1[cbb]	capacitance
	2	@m1[cdb]	capacitance
	3	@m1[cdd]	capacitance
	4	@m1[cdg]	capacitance
	5	@m1[cds]	capacitance
	6	@m1[cgb]	capacitance
	7	@m1[cgd]	capacitance
	8	@m1[cgg]	capacitance
	9	@m1[cgs]	capacitance
	10	@m1[csb]	capacitance
	11	@m1[csd]	capacitance
	12	@m1[csg]	capacitance
	13	@m1[css]	capacitance
	14	@m1[gds]	admittance
	15	@m1[gm]	admittance
	16	@m1[gmbs]	admittance
	17	i(@m1[id])	current
	18	@m1[vbs]	voltage
	19	@m1[vds]	voltage
	20	@m1[vdsat]	voltage
	21	@m1[vgs]	voltage
	22	@m1[vth]	voltage
	23	ao	notype
	24	db20ao	notype
	25	fc	notype
	26	fom	notype
	27	ft	notype
	28	gmid	notype
	29	logfc	notype
	30	logfom	notype
	31	logft	notype
	32	m1#body	voltage
	33	m1#dbody	voltage
	34	m1#gate	voltage
	35	m1#sbody	voltage
	36	nb	voltage
	37	nd	voltage
	38	ng	voltage
	39	ro	notype
	40	v-sweep	voltage
	41	i(vbs)	current
	42	i(vds)	current
	43	i(vgs)	current
	44	vgs_length	notype dims=1
	45	vth	voltage dims=1
Values:
 0	1.119770447446546e-01
	1.197199830505387e-13
	-2.994051083522113e-14
	7.839931828807909e-18
	-1.122830142276400e-13
	1.422156851310324e-13
	-4.488919139624541e-14
	-6.788103963727135e-18
	3.314529574459559e-13
	-2.865569779457468e-13
	-4.489028081907218e-14
	1.865855210545536e-18
	-1.683509969570847e-13
	2.132394119209464e-13
	3.473613980838505e-07
	2.435863543523698e-04
	6.771692927994389e-05
	2.004295199341860e-05
	1.822797788065828e-11
	1.300000000000000e+00
	1.325979969199531e-01
	4.999999985222370e-01
	3.880229552553454e-01
	7.012476219178789e+02
	5.691742802960681e+01
	1.943623859265775e+05
	1.421485578892131e+09
	1.169637243958967e+08
	1.215321747177537e+01
	5.288612221675116e+00
	9.152742458089536e+00
	8.068051188776181e+00
	1.822797788065828e-11
	1.893898892544960e-11
	4.999999985222370e-01
	9.113988940257877e-12
	0.000000000000000e+00
	1.300000000000000e+00
	5.000000000000000e-01
	2.878846082254101e+06
	5.000000000000000e-01
	5.515794105140250e-12
	-2.004164083113397e-05
	-3.258467495825812e-09
	3.000000000000000e+00
	3.880229552575404e-01

 1	1.619770447436533e-01
	1.191801400551995e-13
	-3.257438659206814e-14
	1.317151399936778e-17
	-1.221270904800453e-13
	1.546883055581141e-13
	-3.776882342089634e-14
	-1.148253996072916e-17
	3.550980067014328e-13
	-3.173177007405757e-13
	-4.883693004223501e-14
	3.226057508070624e-18
	-1.831034766401287e-13
	2.319371806248557e-13
	5.170266330866587e-07
	3.358142927508667e-04
	9.491415290710041e-05
	3.454743903753972e-05
	1.441229165354562e-11
	1.300000000000000e+00
	1.678828896864325e-01
	5.499999968810230e-01
	3.880229552563468e-01
	6.495106272302629e+02
	5.625172522703245e+01
	2.659665864410542e+05
	1.463033905289070e+09
	1.505119816038484e+08
	9.720381657985309e+00
	5.424827079353750e+00
	9.165254390861692e+00
	8.177571073599726e+00
	1.441229165354562e-11
	1.703114581190758e-11
	5.499999968810230e-01
	7.206145826716464e-12
	0.000000000000000e+00
	1.300000000000000e+00
	5.500000000000000e-01
	1.934136340385371e+06
	5.500000000000000e-01
	4.498277777149018e-12
	-3.454431268383733e-05
	-6.877344471689639e-09
	0.000000000000000e+00
	0.000000000000000e+00

 2	2.119770447424597e-01
	1.183218941267177e-13
	-3.392029411111176e-14
	1.959574559848079e-17
	-1.268746723250845e-13
	1.607753706905978e-13
	-3.354964571586636e-14
	-1.715131004960593e-17
	3.675153540679863e-13
	-3.339485570420704e-13
	-5.085195429973960e-14
	4.876656862645359e-18
	-1.902128419348732e-13
	2.410599195777502e-13
	7.162665343085763e-07
	4.202142594575452e-04
	1.211664267246517e-04
	5.348970410725859e-05
	9.867589407744974e-12
	1.300000000000000e+00
	2.049083152954903e-01
	5.999999943878852e-01
	3.880229552575404e-01
	5.866730320762297e+02
	5.536792250440967e+01
	3.545020990588500e+05
	1.429604871959597e+09
	1.819765509388667e+08
	7.855983996750542e+00
	5.549618811047934e+00
	9.155216019535056e+00
	8.260015429446845e+00
	9.867589407744974e-12
	1.475879468902430e-11
	5.999999943878852e-01
	4.933794703833910e-12
	0.000000000000000e+00
	1.300000000000000e+00
	6.000000000000001e-01
	1.396128329470699e+06
	6.000000000000001e-01
	3.286357177362227e-12
	-5.348390454084294e-05
	-1.237471325410411e-08
	0.000000000000000e+00
	0.000000000000000e+00

