Title: transistors characterization nmos transistor simulation testbench
Date: Wed Jul  8 23:05:31  2020
Plotname: DC transfer characteristic
Flags: real
No. Variables: 20
No. Points: 675
Variables:
	0	nd	voltage
	1	@m1[gds]	admittance
	2	@m1[gm]	admittance
	3	@m1[gmbs]	admittance
	4	i(@m1[id])	current
	5	@m1[vbs]	voltage
	6	@m1[vds]	voltage
	7	@m1[vdsat]	voltage
	8	@m1[vgs]	voltage
	9	@m1[vth]	voltage
	10	m1#body	voltage
	11	m1#dbody	voltage
	12	m1#gate	voltage
	13	m1#sbody	voltage
	14	nb	voltage
	15	ng	voltage
	16	v-sweep	voltage
	17	i(vds)	current
	18	i(vgs)	current
	19	i(vsb)	current
Values:
 0	0.000000000000000e+00
	4.459318405554283e-08
	0.000000000000000e+00
	0.000000000000000e+00
	0.000000000000000e+00
	2.317277945086518e-18
	0.000000000000000e+00
	4.103957166123770e-02
	9.999999999999920e-02
	3.880071954297645e-01
	2.317277945086518e-18
	1.158638972534569e-18
	9.999999999999920e-02
	1.158638972534569e-18
	0.000000000000000e+00
	1.000000000000000e-01
	0.000000000000000e+00
	2.976728127578081e-13
	-5.968558980384842e-13
	-6.179407858187018e-18

 1	5.000000000000000e-02
	5.054807880580327e-09
	2.774403995147749e-08
	8.184569656133473e-09
	1.026754560303632e-09
	1.097894158373562e-13
	5.000000000000000e-02
	4.103957168836480e-02
	9.999999999999953e-02
	3.880071774878630e-01
	1.097894158373562e-13
	4.940431013971397e-13
	9.999999999999953e-02
	5.489470791826462e-14
	0.000000000000000e+00
	1.000000000000000e-01
	5.000000000000000e-02
	-1.027278569176564e-09
	-3.410605131648481e-13
	-5.855373718770425e-13

 2	1.000000000000000e-01
	5.599859861564622e-10
	3.028629772146314e-08
	8.924525847581783e-09
	1.120652249739453e-09
	2.058597929689868e-13
	1.000000000000000e-01
	4.103957171536043e-02
	9.999999999999960e-02
	3.880071596354397e-01
	2.058597929689868e-13
	9.263597972461182e-13
	9.999999999999960e-02
	1.029298964837181e-13
	0.000000000000000e+00
	1.000000000000000e-01
	1.000000000000000e-01
	-1.121748203384824e-09
	-2.984279490192421e-13
	-1.097912716326347e-12

 3	1.500000000000000e-01
	1.686489135134036e-10
	3.069973086424248e-08
	9.045327447721626e-09
	1.135933671718337e-09
	2.999455240465458e-13
	1.500000000000000e-01
	4.103957174221727e-02
	9.999999999999969e-02
	3.880071418720487e-01
	2.999455240465458e-13
	1.349745585751947e-12
	9.999999999999969e-02
	1.499727620221433e-13
	0.000000000000000e+00
	1.000000000000000e-01
	1.500000000000000e-01
	-1.137590977764219e-09
	-2.273736754432321e-13
	-1.599703281742149e-12

 4	2.000000000000000e-01
	9.224565427932946e-11
	3.086494819746846e-08
	9.093790873129076e-09
	1.142045970768685e-09
	3.937441005034802e-13
	2.000000000000000e-01
	4.103957176894258e-02
	1.000000000000000e-01
	3.880071241972441e-01
	3.937441005034802e-13
	1.771839178439761e-12
	1.000000000000000e-01
	1.968720502502573e-13
	0.000000000000000e+00
	1.000000000000000e-01
	2.000000000000000e-01
	-1.144439658181551e-09
	0.000000000000000e+00
	-2.099962355829428e-12

 5	2.500000000000000e-01
	6.853375335136120e-11
	3.097090032125693e-08
	9.124933382069589e-09
	1.145968105268682e-09
	4.875011291122835e-13
	2.500000000000000e-01
	4.103957179552913e-02
	1.000000000000007e-01
	3.880071066105841e-01
	4.875011291122835e-13
	2.193745805799138e-12
	1.000000000000007e-01
	2.437505645543058e-13
	0.000000000000000e+00
	1.000000000000000e-01
	2.500000000000000e-01
	-1.149403019632945e-09
	5.400124791776761e-13
	-2.599999841385194e-12

 6	3.000000000000000e-01
	5.893088463341817e-11
	3.105609803472428e-08
	9.149999184638243e-09
	1.149123055610329e-09
	5.812521462443365e-13
	3.000000000000000e-01
	4.103957182198409e-02
	1.000000000000021e-01
	3.880070891116274e-01
	5.812521462443365e-13
	2.615625381505239e-12
	1.000000000000021e-01
	2.906260731199793e-13
	0.000000000000000e+00
	1.000000000000000e-01
	3.000000000000000e-01
	-1.154096759926844e-09
	1.591615728102624e-12
	-3.100005265726322e-12

 7	3.500000000000000e-01
	5.431469670676601e-11
	3.113219561248664e-08
	9.172397275679161e-09
	1.151941562926057e-09
	6.750022935886699e-13
	3.500000000000000e-01
	4.103957184831489e-02
	1.000000000000046e-01
	3.880070716999403e-01
	6.750022935886699e-13
	3.037501043160268e-12
	1.000000000000046e-01
	3.375011467917929e-13
	0.000000000000000e+00
	1.000000000000000e-01
	3.500000000000000e-01
	-1.159237075206192e-09
	3.396394276933279e-12
	-3.600006051195384e-12

 8	4.000000000000000e-01
	5.181121769832986e-11
	3.120366395351492e-08
	9.193437085335253e-09
	1.154588900938861e-09
	7.687523150862600e-13
	4.000000000000000e-01
	4.103957187450690e-02
	1.000000000000086e-01
	3.880070543750858e-01
	7.687523150862600e-13
	3.459376138499353e-12
	1.000000000000086e-01
	3.843761575402349e-13
	0.000000000000000e+00
	1.000000000000000e-01
	4.000000000000000e-01
	-1.165406500465771e-09
	6.423306331271306e-12
	-4.100006165478083e-12

 9	4.500000000000000e-01
	5.032463652423823e-11
	3.127251165734379e-08
	9.213707429664737e-09
	1.157139330206138e-09
	8.625023183764255e-13
	4.500000000000000e-01
	4.103957190056733e-02
	1.000000000000151e-01
	3.880070371366299e-01
	8.625023183764255e-13
	3.881251151899823e-12
	1.000000000000151e-01
	4.312511591849646e-13
	0.000000000000000e+00
	1.000000000000000e-01
	4.500000000000000e-01
	-1.173282259711526e-09
	1.125499693443999e-11
	-4.600006182651047e-12

 10	4.999999999999999e-01
	4.937618682371603e-11
	3.133974908621083e-08
	9.233504702378228e-09
	1.159630208754372e-09
	9.562523190332494e-13
	4.999999999999999e-01
	4.103957192651095e-02
	1.000000000000251e-01
	3.880070199841447e-01
	9.562523190332494e-13
	4.303126153445281e-12
	1.000000000000251e-01
	4.781261595130235e-13
	0.000000000000000e+00
	1.000000000000000e-01
	4.999999999999999e-01
	-1.183764616526757e-09
	1.872990651463624e-11
	-5.100006185776205e-12

 11	5.499999999999999e-01
	4.873418720368045e-11
	3.140592963008484e-08
	9.252991333538649e-09
	1.162081999650203e-09
	1.050002319310087e-12
	5.499999999999999e-01
	4.103957195231565e-02
	1.000000000000404e-01
	3.880070029171968e-01
	1.050002319310087e-12
	4.725001153275972e-12
	1.000000000000404e-01
	5.250011596510893e-13
	0.000000000000000e+00
	1.000000000000000e-01
	5.499999999999999e-01
	-1.198098770780322e-09
	3.012701199622825e-11
	-5.600006186871553e-12

 12	6.000000000000000e-01
	4.827723346147348e-11
	3.147137726850677e-08
	9.272262460775983e-09
	1.164506683616838e-09
	1.143752319532954e-12
	6.000000000000000e-01
	4.103957197798893e-02
	1.000000000000632e-01
	3.880069859353643e-01
	1.143752319532954e-12
	5.146876152859063e-12
	1.000000000000632e-01
	5.718761597621696e-13
	0.000000000000000e+00
	1.000000000000000e-01
	6.000000000000000e-01
	-1.218022611162957e-09
	4.710898338089464e-11
	-6.100006187675900e-12

 13	6.500000000000000e-01
	4.793751494349449e-11
	3.153629214292001e-08
	9.291376878996643e-09
	1.166911662220573e-09
	1.237502319749006e-12
	6.500000000000000e-01
	4.103957200353795e-02
	1.000000000000968e-01
	3.880069690382209e-01
	1.237502319749006e-12
	5.568751152406824e-12
	1.000000000000968e-01
	6.187511598698424e-13
	0.000000000000000e+00
	1.000000000000000e-01
	6.500000000000000e-01
	-1.245960556009235e-09
	7.216272024379577e-11
	-6.600006188440794e-12

 14	7.000000000000001e-01
	4.767511996716521e-11
	3.160080350738258e-08
	9.310372571362345e-09
	1.169301715685438e-09
	1.331252319965057e-12
	7.000000000000001e-01
	4.103957202896280e-02
	1.000000000001457e-01
	3.880069522253442e-01
	1.331252319965057e-12
	5.990626151949968e-12
	1.000000000001457e-01
	6.656261599775148e-13
	0.000000000000000e+00
	1.000000000000000e-01
	7.000000000000001e-01
	-1.285283651790694e-09
	1.085993517335737e-10
	-7.100006189202606e-12

 15	7.500000000000001e-01
	4.746550727927107e-11
	3.166499802495743e-08
	9.329275012456078e-09
	1.171680049193110e-09
	1.425002320182084e-12
	7.500000000000001e-01
	4.103957205425614e-02
	1.000000000002161e-01
	3.880069354963141e-01
	1.425002320182084e-12
	6.412501151492930e-12
	1.000000000002161e-01
	7.125011600856752e-13
	0.000000000000000e+00
	1.000000000000000e-01
	7.500000000000001e-01
	-1.340660499495482e-09
	1.610800381968147e-10
	-7.600006189966574e-12

 16	8.000000000000002e-01
	4.729301680299202e-11
	3.172893570639611e-08
	9.348101846970829e-09
	1.174048882267816e-09
	1.518752320400223e-12
	8.000000000000003e-01
	4.103957207942525e-02
	1.000000000003167e-01
	3.880069188507126e-01
	1.518752320400223e-12
	6.834376151036352e-12
	1.000000000003167e-01
	7.593761601943917e-13
	0.000000000000000e+00
	1.000000000000000e-01
	8.000000000000002e-01
	-1.418530879381671e-09
	2.360849293836509e-10
	-8.100006190733445e-12

 17	8.500000000000002e-01
	4.714733314626036e-11
	3.179265929649688e-08
	9.366865645887398e-09
	1.176409795882315e-09
	1.612502320619488e-12
	8.500000000000002e-01
	4.103957210446284e-02
	1.000000000004593e-01
	3.880069022881216e-01
	1.612502320619488e-12
	7.256251150580324e-12
	1.000000000004593e-01
	8.062511603036713e-13
	0.000000000000000e+00
	1.000000000000000e-01
	8.500000000000002e-01
	-1.527744160005199e-09
	3.424389660722227e-10
	-8.600006191503309e-12

 18	9.000000000000002e-01
	4.702147288731725e-11
	3.185620001715096e-08
	9.385575593317187e-09
	1.178763944842521e-09
	1.706252320839877e-12
	9.000000000000002e-01
	4.103957212938356e-02
	1.000000000006603e-01
	3.880068858081310e-01
	1.706252320839877e-12
	7.678126150124855e-12
	1.000000000006603e-01
	8.531261604135127e-13
	0.000000000000000e+00
	1.000000000000000e-01
	9.000000000000002e-01
	-1.680418327662055e-09
	4.922497964798822e-10
	-9.100006192276169e-12

 19	9.500000000000003e-01
	4.691059544303603e-11
	3.191958120049486e-08
	9.404238553898244e-09
	1.181112192150254e-09
	1.800002330072451e-12
	9.500000000000003e-01
	4.103957215417276e-02
	1.000000000009418e-01
	3.880068694103270e-01
	1.800002330072451e-12
	8.100001154175477e-12
	1.000000000009418e-01
	9.000011650294468e-13
	0.000000000000000e+00
	1.000000000000000e-01
	9.500000000000003e-01
	-1.893093767734959e-09
	7.021014880592702e-10
	-9.600006217081523e-12

 20	1.000000000000000e+00
	4.681127723151279e-11
	3.198282065634094e-08
	9.422859768489770e-09
	1.183455196558996e-09
	1.893752399307873e-12
	1.000000000000000e+00
	4.103957217884507e-02
	1.000000000013339e-01
	3.880068530942998e-01
	1.893752399307873e-12
	8.521876188227524e-12
	1.000000000013339e-01
	9.468761996468045e-13
	0.000000000000000e+00
	1.000000000000000e-01
	1.000000000000000e+00
	-2.188280168065394e-09
	9.944329804056906e-10
	-1.010000640189447e-11

 21	1.050000000000000e+00
	4.672105566586998e-11
	3.204593225652796e-08
	9.441443319848330e-09
	1.185793471170281e-09
	1.987502729649351e-12
	1.050000000000000e+00
	4.103957220339317e-02
	1.000000000018777e-01
	3.880068368596416e-01
	1.987502729649351e-12
	8.943751352832600e-12
	1.000000000018777e-01
	9.937513648171908e-13
	0.000000000000000e+00
	1.000000000000000e-01
	1.050000000000000e+00
	-2.596526960727785e-09
	1.399840243720973e-09
	-1.060000728299023e-11

 22	1.100000000000000e+00
	4.663813513475183e-11
	3.210892702127047e-08
	9.459992451992334e-09
	1.188127423612706e-09
	2.081254084719519e-12
	1.100000000000000e+00
	4.103957222782435e-02
	1.000000000026287e-01
	3.880068207059448e-01
	2.081254084719519e-12
	9.365627029802020e-12
	1.000000000026287e-01
	1.040627042351922e-12
	0.000000000000000e+00
	1.000000000000000e-01
	1.100000000000000e+00
	-3.159190031758570e-09
	1.959662654371641e-09
	-1.110001089669584e-11

 23	1.150000000000000e+00
	4.656119284168246e-11
	3.217181388077894e-08
	9.478509794142632e-09
	1.190457384211433e-09
	2.175008964681551e-12
	1.150000000000000e+00
	4.103957225212402e-02
	1.000000000036617e-01
	3.880068046328094e-01
	2.175008964681551e-12
	9.787504469217372e-12
	1.000000000036617e-01
	1.087504482332585e-12
	0.000000000000000e+00
	1.000000000000000e-01
	1.150000000000000e+00
	-3.932123239695301e-09
	2.729777293097868e-09
	-1.160002391011309e-11

 24	1.200000000000000e+00
	4.648924766469823e-11
	3.223460022018532e-08
	9.496997520974410e-09
	1.192783626143311e-09
	2.268774658162664e-12
	1.200000000000000e+00
	4.103957227630683e-02
	1.000000000050777e-01
	3.880067886398317e-01
	2.268774658162664e-12
	1.020938731539227e-11
	1.000000000050777e-01
	1.134387329072788e-12
	0.000000000000000e+00
	1.000000000000000e-01
	1.200000000000000e+00
	-4.990596833840917e-09
	3.785416424761934e-09
	-1.210006575958125e-11

 25	1.250000000000000e+00
	4.642156963619386e-11
	3.229729227657613e-08
	9.515457469393551e-09
	1.195106380122281e-09
	2.362570468107866e-12
	1.250000000000000e+00
	4.103957230036541e-02
	1.000000000070125e-01
	3.880067727266122e-01
	2.362570468107866e-12
	1.063128521979920e-11
	1.000000000070125e-01
	1.181285234045036e-12
	0.000000000000000e+00
	1.000000000000000e-01
	1.250000000000000e+00
	-6.435841709290229e-09
	5.227846600064368e-09
	-1.260018791962036e-11

 26	1.300000000000000e+00
	4.635761612156952e-11
	3.235989543294383e-08
	9.533891225005339e-09
	1.197425845272130e-09
	2.456460488774500e-12
	1.300000000000000e+00
	4.103957232431443e-02
	1.000000000096485e-01
	3.880067568927530e-01
	2.456460488774500e-12
	1.105323022956685e-11
	1.000000000096485e-01
	1.228230244377999e-12
	0.000000000000000e+00
	1.000000000000000e-01
	1.300000000000000e+00
	-8.403745903120251e-09
	7.192923590082501e-09
	-1.310056130825016e-11

 27	0.000000000000000e+00
	1.685918782378339e-07
	0.000000000000000e+00
	0.000000000000000e+00
	0.000000000000000e+00
	4.420877850200038e-18
	0.000000000000000e+00
	4.119874712370324e-02
	1.499999999999977e-01
	3.880071954297645e-01
	4.420877850200038e-18
	2.210438925083441e-18
	1.499999999999977e-01
	2.210438925083441e-18
	0.000000000000000e+00
	1.500000000000000e-01
	0.000000000000000e+00
	8.586301087048489e-13
	-1.719513420539442e-12
	-1.178900760935309e-17

 28	5.000000000000000e-02
	1.926071000507053e-08
	1.020054162238941e-07
	2.941175115943080e-08
	3.891812992274446e-09
	1.097915197359498e-13
	5.000000000000000e-02
	4.119874722442517e-02
	1.499999999999984e-01
	3.880071774878630e-01
	1.097915197359498e-13
	4.940441533464365e-13
	1.499999999999984e-01
	5.489575986756142e-14
	0.000000000000000e+00
	1.500000000000000e-01
	5.000000000000000e-02
	-3.892081406031133e-09
	-1.179500941361766e-12
	-5.855429822732962e-13

 29	1.000000000000000e-01
	2.132170194951917e-09
	1.114556609074033e-07
	3.209793661400189e-08
	4.249693639072976e-09
	2.058618975335926e-13
	1.000000000000000e-01
	4.119874732465034e-02
	1.499999999999988e-01
	3.880071596354397e-01
	2.058618975335926e-13
	9.263608495284212e-13
	1.499999999999988e-01
	1.029309487660210e-13
	0.000000000000000e+00
	1.500000000000000e-01
	1.000000000000000e-01
	-4.250710666219762e-09
	-9.379164112033322e-13
	-1.097918328498634e-12

 30	1.500000000000000e-01
	6.404798665683079e-10
	1.129862396202269e-07
	3.253477215159134e-08
	4.307817047802179e-09
	2.999476293517442e-13
	1.500000000000000e-01
	4.119874742437141e-02
	1.499999999999989e-01
	3.880071418720487e-01
	2.999476293517442e-13
	1.349746638404546e-12
	1.499999999999989e-01
	1.499738146747425e-13
	0.000000000000000e+00
	1.500000000000000e-01
	1.500000000000000e-01
	-4.309395457936274e-09
	-8.668621376273222e-13
	-1.599708895889349e-12

 31	2.000000000000000e-01
	3.496197087322801e-10
	1.135948612245405e-07
	3.270920004403067e-08
	4.331007349241436e-09
	3.937462065676134e-13
	2.000000000000000e-01
	4.119874752359564e-02
	1.499999999999989e-01
	3.880071241972441e-01
	3.937462065676134e-13
	1.771840231471828e-12
	1.499999999999989e-01
	1.968731032823239e-13
	0.000000000000000e+00
	1.500000000000000e-01
	2.000000000000000e-01
	-4.333145592121353e-09
	-8.100187187665142e-13
	-2.099967972000455e-12

 32	2.500000000000000e-01
	2.594263424179130e-10
	1.139838523070238e-07
	3.282092822051362e-08
	4.345862975436946e-09
	4.875032359437469e-13
	2.500000000000000e-01
	4.119874762232311e-02
	1.499999999999992e-01
	3.880071066105841e-01
	4.875032359437469e-13
	2.193746859214869e-12
	1.499999999999992e-01
	2.437516179700375e-13
	0.000000000000000e+00
	1.500000000000000e-01
	2.500000000000000e-01
	-4.348737385038883e-09
	-5.968558980384842e-13
	-2.600005459602433e-12

 33	3.000000000000000e-01
	2.229198183327241e-10
	1.142960399036085e-07
	3.291068842991742e-08
	4.357801183533964e-09
	5.812542538486624e-13
	3.000000000000000e-01
	4.119874772056829e-02
	1.500000000000000e-01
	3.880070891116274e-01
	5.812542538486624e-13
	2.615626435307402e-12
	1.500000000000000e-01
	2.906271269221422e-13
	0.000000000000000e+00
	1.500000000000000e-01
	3.000000000000000e-01
	-4.361716792540798e-09
	-4.263256414560601e-14
	-3.100010886004529e-12

 34	3.500000000000000e-01
	2.053775312212529e-10
	1.145745836408144e-07
	3.299081297221204e-08
	4.368460589812756e-09
	6.750044019702788e-13
	3.500000000000000e-01
	4.119874781831669e-02
	1.500000000000014e-01
	3.880070716999403e-01
	6.750044019702788e-13
	3.037502097351072e-12
	1.500000000000014e-01
	3.375022009825973e-13
	0.000000000000000e+00
	1.500000000000000e-01
	3.500000000000000e-01
	-4.373914987291370e-09
	9.947598300641403e-13
	-3.600011673546345e-12

 35	4.000000000000000e-01
	1.958665881032671e-10
	1.148360242930621e-07
	3.306603448242680e-08
	4.378469611160706e-09
	7.687544242490516e-13
	4.000000000000000e-01
	4.119874791557562e-02
	1.500000000000038e-01
	3.880070543750858e-01
	7.687544242490516e-13
	3.459377193080749e-12
	1.500000000000038e-01
	3.843772121216307e-13
	0.000000000000000e+00
	1.500000000000000e-01
	4.000000000000000e-01
	-4.386245818261428e-09
	2.827960088325199e-12
	-4.100011789912198e-12

 36	4.500000000000000e-01
	1.902201660626400e-10
	1.150877876826158e-07
	3.313847970790630e-08
	4.388110505778081e-09
	8.625044283240217e-13
	4.500000000000000e-01
	4.119874801235958e-02
	1.500000000000079e-01
	3.880070371366299e-01
	8.625044283240217e-13
	3.881252206873621e-12
	1.500000000000079e-01
	4.312522141587627e-13
	0.000000000000000e+00
	1.500000000000000e-01
	4.500000000000000e-01
	-4.399408801816349e-09
	5.854872142663226e-12
	-4.600011809177974e-12

 37	4.999999999999999e-01
	1.866183352104557e-10
	1.153336071330701e-07
	3.320921866922183e-08
	4.397525230203526e-09
	9.562544297691100e-13
	4.999999999999999e-01
	4.119874810864680e-02
	1.500000000000143e-01
	3.880070199841447e-01
	9.562544297691100e-13
	4.303127208813211e-12
	1.500000000000143e-01
	4.781272148809538e-13
	0.000000000000000e+00
	1.500000000000000e-01
	4.999999999999999e-01
	-4.414148857621055e-09
	1.067235189111670e-11
	-5.100011814405172e-12

 38	5.499999999999999e-01
	1.841806262394059e-10
	1.155755265884443e-07
	3.327883753741343e-08
	4.406791525660938e-09
	1.050004430837570e-12
	5.499999999999999e-01
	4.119874820445902e-02
	1.500000000000244e-01
	3.880070029171968e-01
	1.050004430837570e-12
	4.725002209039714e-12
	1.500000000000244e-01
	5.250022154148304e-13
	0.000000000000000e+00
	1.500000000000000e-01
	5.499999999999999e-01
	-4.431406632490779e-09
	1.816147232602816e-11
	-5.600011817611510e-12

 39	6.000000000000000e-01
	1.824457531655548e-10
	1.158147422687823e-07
	3.334767953745634e-08
	4.415954900517856e-09
	1.143754431855347e-12
	6.000000000000000e-01
	4.119874829979644e-02
	1.500000000000397e-01
	3.880069859353643e-01
	1.143754431855347e-12
	5.146877209020260e-12
	1.500000000000397e-01
	5.718772159233663e-13
	0.000000000000000e+00
	1.500000000000000e-01
	6.000000000000000e-01
	-4.452452371654141e-09
	2.957278866233537e-11
	-6.100011820535620e-12

 40	6.500000000000000e-01
	1.811561054447752e-10
	1.160519929507957e-07
	3.341595672982696e-08
	4.425043465557454e-09
	1.237504432869551e-12
	6.500000000000000e-01
	4.119874839465890e-02
	1.500000000000624e-01
	3.880069690382209e-01
	1.237504432869551e-12
	5.568752208967097e-12
	1.500000000000624e-01
	6.187522164301151e-13
	0.000000000000000e+00
	1.500000000000000e-01
	6.500000000000000e-01
	-4.479040093907763e-09
	4.651212748285616e-11
	-6.600011823428919e-12

 41	7.000000000000001e-01
	1.801600804399718e-10
	1.162877556401393e-07
	3.348380608393138e-08
	4.434075373802457e-09
	1.331254433886959e-12
	7.000000000000002e-01
	4.119874848904649e-02
	1.500000000000960e-01
	3.880069522253442e-01
	1.331254433886959e-12
	5.990627208910919e-12
