Title: Source Degeneration Resistors Negative Feedback Simulation Testbench
Date: Thu Jul  2 18:59:24  2020
Plotname: DC transfer characteristic
Flags: real
No. Variables: 16
No. Points: 27
Variables:
	0	n2	voltage
	1	m1#body	voltage
	2	m1#dbody	voltage
	3	m1#gate	voltage
	4	m1#sbody	voltage
	5	m2#body	voltage
	6	m2#dbody	voltage
	7	m2#gate	voltage
	8	m2#sbody	voltage
	9	n1	voltage
	10	n3	voltage
	11	n4	voltage
	12	n_pos	voltage
	13	v-sweep	voltage
	14	i(v1)	current
	15	i(v2)	current
Values:
 0	0.000000000000000e+00
	1.876471840748870e-12
	7.181347020962946e-12
	8.224148117454585e-01
	2.066557276554537e-12
	6.630252306544123e-13
	3.315126153237585e-13
	8.224148025855260e-01
	3.316438227998158e-13
	8.224148146676051e-01
	1.498945204724093e-01
	1.713017867828163e-05
	1.300000000000000e+00
	0.000000000000000e+00
	-5.000000000000000e-05
	2.944861398420343e-08

 1	5.000000000000000e-02
	1.876644995061658e-12
	7.181854313215883e-12
	8.224709070909162e-01
	2.066830859289394e-12
	5.078093222727787e-13
	6.930530546132748e-13
	8.224709007877687e-01
	5.003282638988792e-13
	8.224709100138956e-01
	1.499194529374887e-01
	3.246305715973560e-02
	1.300000000000000e+00
	5.000000000000000e-02
	-5.000000000000000e-05
	-1.079417120529292e-05

 2	1.000000000000000e-01
	1.876772479705839e-12
	7.182227768243378e-12
	8.225122021177526e-01
	2.067032273604638e-12
	5.037519179799372e-13
	1.075305859750467e-12
	8.225121979177474e-01
	7.199383824640552e-13
	8.225122050413450e-01
	1.499378080180429e-01
	6.190822608518055e-02
	1.300000000000000e+00
	1.000000000000000e-01
	-5.000000000000000e-05
	-2.061534591324529e-05

 3	1.500000000000000e-01
	1.876863339515379e-12
	7.182493926677644e-12
	8.225416325879591e-01
	2.067175821651315e-12
	5.702219343190921e-13
	1.484883790887205e-12
	8.225416298868535e-01
	9.472428463990188e-13
	8.225416355119889e-01
	1.499508895925867e-01
	8.775257485686794e-02
	1.300000000000000e+00
	1.500000000000000e-01
	-5.000000000000000e-05
	-2.923448941818593e-05

 4	2.000000000000000e-01
	1.876926933519559e-12
	7.182680208372647e-12
	8.225622305467395e-01
	2.067276291063586e-12
	6.660891508539843e-13
	1.908011703613992e-12
	8.225622288947060e-01
	1.157416033963184e-12
	8.225622334710750e-01
	1.499600453232245e-01
	1.093741123108692e-01
	1.300000000000000e+00
	2.000000000000000e-01
	-5.000000000000000e-05
	-3.644472054093508e-05

 5	2.500000000000000e-01
	1.876970088857892e-12
	7.182806617616610e-12
	8.225762080898593e-01
	2.067344469487553e-12
	7.715841805316901e-13
	2.335787331507775e-12
	8.225762071497210e-01
	1.336612627394173e-12
	8.225762110144025e-01
	1.499662583564557e-01
	1.262301853205260e-01
	1.300000000000000e+00
	2.500000000000000e-01
	-5.000000000000000e-05
	-4.206548261600100e-05

 6	3.000000000000000e-01
	1.876997678349606e-12
	7.182887430680212e-12
	8.225851438654395e-01
	2.067388056053447e-12
	8.772399897718642e-13
	2.763619303267893e-12
	8.225851433804151e-01
	1.477571270232422e-12
	8.225851467901152e-01
	1.499702303429826e-01
	1.379794431259944e-01
	1.300000000000000e+00
	3.000000000000000e-01
	-5.000000000000000e-05
	-4.598322593978116e-05

 7	3.500000000000000e-01
	1.877013315293198e-12
	7.182933232816071e-12
	8.225902083539136e-01
	2.067412759565325e-12
	9.790679322531908e-13
	3.189533862491388e-12
	8.225902081268331e-01
	1.579330777761530e-12
	8.225902112786646e-01
	1.499724815365032e-01
	1.447582488128091e-01
	1.300000000000000e+00
	3.500000000000000e-01
	-5.000000000000000e-05
	-4.824357828842946e-05

 8	4.000000000000000e-01
	1.877020579973987e-12
	7.182954511652603e-12
	8.225925612200337e-01
	2.067424236403296e-12
	1.076865645543177e-12
	3.613432803726657e-12
	8.225925611127897e-01
	1.650502757138496e-12
	8.225925641448197e-01
	1.499735274020809e-01
	1.477277925028664e-01
	1.300000000000000e+00
	4.000000000000000e-01
	-5.000000000000000e-05
	-4.923377485955804e-05

 9	4.500000000000000e-01
	1.877023532533770e-12
	7.182963159901878e-12
	8.225935174826053e-01
	2.067428900894425e-12
	1.172499264661897e-12
	4.036249625041397e-12
	8.225935174240662e-01
	1.706411286413605e-12
	8.225935204074056e-01
	1.499739524695077e-01
	1.488066276100060e-01
	1.300000000000000e+00
	4.500000000000000e-01
	-5.000000000000000e-05
	-4.959352830272972e-05

 10	4.999999999999999e-01
	1.877024866617734e-12
	7.182967067524534e-12
	8.225939495600226e-01
	2.067431008499994e-12
	1.267349598617363e-12
	4.458674793236171e-12
	8.225939495234901e-01
	1.757062347773277e-12
	8.225939524848294e-01
	1.499741445322699e-01
	1.492367219999816e-01
	1.300000000000000e+00
	4.999999999999999e-01
	-5.000000000000000e-05
	-4.973695717036871e-05

 11	5.499999999999999e-01
	1.877025593789988e-12
	7.182969197465345e-12
	8.225941850739776e-01
	2.067432157296975e-12
	1.361953949985688e-12
	4.880976968612603e-12
	8.225941850494399e-01
	1.806016745806871e-12
	8.225941879987877e-01
	1.499742492203008e-01
	1.494570042371780e-01
	1.300000000000000e+00
	5.499999999999999e-01
	-5.000000000000000e-05
	-4.981041952869934e-05

 12	6.000000000000000e-01
	1.877026054524662e-12
	7.182970546991809e-12
	8.225943342951926e-01
	2.067432885171297e-12
	1.456474963905531e-12
	5.303237475044178e-12
	8.225943342782553e-01
	1.854341416076561e-12
	8.225943372200050e-01
	1.499743155502888e-01
	1.495988834197002e-01
	1.300000000000000e+00
	6.000000000000000e-01
	-5.000000000000000e-05
	-4.985773475023464e-05

 13	6.500000000000000e-01
	1.877026380814724e-12
	7.182971502720023e-12
	8.225944399729489e-01
	2.067433400648008e-12
	1.550961291540131e-12
	5.725480638301212e-12
	8.225944399613941e-01
	1.902385585698133e-12
	8.225944428977628e-01
	1.499743625248176e-01
	1.497056772281845e-01
	1.300000000000000e+00
	6.500000000000000e-01
	-5.000000000000000e-05
	-4.989334839526474e-05

 14	7.000000000000001e-01
	1.877026631393256e-12
	7.182972236683446e-12
	8.225945211295020e-01
	2.067433796514637e-12
	1.645430651069600e-12
	6.147715317501061e-12
	8.225945211220806e-01
	1.950285013548886e-12
	8.225945240543172e-01
	1.499743985994735e-01
	1.497943045435839e-01
	1.300000000000000e+00
	7.000000000000001e-01
	-5.000000000000000e-05
	-4.992290290835963e-05

 15	7.500000000000001e-01
	1.877026835644831e-12
	7.182972834951696e-12
	8.225945872818294e-01
	2.067434119193380e-12
	1.739890673201410e-12
	6.569945328001412e-12
	8.225945872777772e-01
	1.998100735676892e-12
	8.225945902066455e-01
	1.499744280046384e-01
	1.498723942899260e-01
	1.300000000000000e+00
	7.500000000000001e-01
	-5.000000000000000e-05
	-4.994894267594835e-05

 16	8.000000000000002e-01
	1.877027009766817e-12
	7.182973344968082e-12
	8.225946436758813e-01
	2.067434394273047e-12
	1.834345056349322e-12
	6.992172519009720e-12
	8.225946436747014e-01
	2.045863436160409e-12
	8.225946466006981e-01
	1.499744530721787e-01
	1.499437908629869e-01
	1.300000000000000e+00
	8.000000000000002e-01
	-5.000000000000000e-05
	-4.997274993976453e-05

 17	8.500000000000002e-01
	1.877027163607767e-12
	7.182973795579767e-12
	8.225946935013753e-01
	2.067434637312508e-12
	1.928795761033983e-12
	7.414397870786386e-12
	8.225946935027331e-01
	2.093589950010494e-12
	8.225946964261929e-01
	1.499744752199488e-01
	1.500106080899500e-01
	1.300000000000000e+00
	8.500000000000002e-01
	-5.000000000000000e-05
	-4.999502978174623e-05

 18	9.000000000000002e-01
	1.877027304663262e-12
	7.182974208741870e-12
	8.225947391859553e-01
	2.067434860153367e-12
	2.023243903578429e-12
	7.836621941492941e-12
	8.225947391896401e-01
	2.141290185221267e-12
	8.225947421107737e-01
	1.499744955270545e-01
	1.500740925328185e-01
	1.300000000000000e+00
	9.000000000000002e-01
	-5.000000000000000e-05
	-5.001619808190724e-05

 19	9.500000000000003e-01
	1.877027437675016e-12
	7.182974598343237e-12
	8.225947822653534e-01
	2.067435070286628e-12
	2.117690157251809e-12
	8.258845067763965e-12
	8.225947822712321e-01
	2.188970315611670e-12
	8.225947851901724e-01
	1.499745146761377e-01
	1.501350224313830e-01
	1.300000000000000e+00
	9.500000000000003e-01
	-5.000000000000000e-05
	-5.003651448111648e-05

 20	1.000000000000000e+00
	1.877027566639288e-12
	7.182974976089205e-12
	8.225948240338637e-01
	2.067435274025635e-12
	2.212134948585992e-12
	8.681067462865391e-12
	8.225948240418699e-01
	2.236634377805839e-12
	8.225948269586834e-01
	1.499745332425235e-01
	1.501939075329735e-01
	1.300000000000000e+00
	1.000000000000000e+00
	-5.000000000000000e-05
	-5.005614908728733e-05

 21	1.050000000000000e+00
	1.877027695693789e-12
	7.182975354099438e-12
	8.225948658315940e-01
	2.067435477907178e-12
	2.306578559483808e-12
	9.103289267748630e-12
	8.225948658417294e-01
	2.284285121776860e-12
	8.225948687564144e-01
	1.499745518218980e-01
	1.502510956840453e-01
	1.300000000000000e+00
	1.050000000000000e+00
	-5.000000000000000e-05
	-5.007521804806193e-05

 22	1.100000000000000e+00
	1.877027829732101e-12
	7.182975746707605e-12
	8.225949092434617e-01
	2.067435689662189e-12
	2.401021183427513e-12
	9.525510579154817e-12
	8.225949092558079e-01
	2.331924489453329e-12
	8.225949121682826e-01
	1.499745711187677e-01
	1.503068328931996e-01
	1.300000000000000e+00
	1.100000000000000e+00
	-5.000000000000000e-05
	-5.009380360024896e-05

 23	1.150000000000000e+00
	1.877027974997386e-12
	7.182976172200381e-12
	8.225949562914789e-01
	2.067435919153675e-12
	2.495462957979379e-12
	9.947731465865086e-12
	8.225949563062210e-01
	2.379553897018430e-12
	8.225949592163005e-01
	1.499745920319320e-01
	1.503612988020191e-01
	1.300000000000000e+00
	1.150000000000000e+00
	-5.000000000000000e-05
	-5.011196592393439e-05

 24	1.200000000000000e+00
	1.877028139848219e-12
	7.182976655060642e-12
	8.225950096827909e-01
	2.067436179586593e-12
	2.589903984465048e-12
	1.036995197854225e-11
	8.225950097002523e-01
	2.427174408569637e-12
	8.225950126076133e-01
	1.499746157647354e-01
	1.504146285260334e-01
	1.300000000000000e+00
	1.200000000000000e+00
	-5.000000000000000e-05
	-5.012975045965308e-05

 25	1.250000000000000e+00
	1.877028335774130e-12
	7.182977228942057e-12
	8.225950731385844e-01
	2.067436489112204e-12
	2.684344340449661e-12
	1.079217215596889e-11
	8.225950731592783e-01
	2.474786847153137e-12
	8.225950760634079e-01
	1.499746439712709e-01
	1.504669266266504e-01
	1.300000000000000e+00
	1.250000000000000e+00
	-5.000000000000000e-05
	-5.014719261314498e-05

 26	1.300000000000000e+00
	1.877028578752203e-12
	7.182977940642647e-12
	8.225951518334570e-01
	2.067436872971253e-12
	2.814916782389453e-12
	1.123245837637299e-11
	8.225951518581591e-01
	2.540458215676609e-12
	8.225951547582817e-01
	1.499746789516840e-01
	1.505182763888286e-01
	1.300000000000000e+00
	1.300000000000000e+00
	-5.000000000000000e-05
	-5.016432092049602e-05

