Title: dc tb
Date: Mon May 22 23:02:12  2023
Plotname: DC transfer characteristic
Flags: real
No. Variables: 24
No. Points: 27
Variables:
	0	n2	voltage
	1	m1#body	voltage
	2	m1#dbody	voltage
	3	m1#gate	voltage
	4	m1#sbody	voltage
	5	m2#body	voltage
	6	m2#dbody	voltage
	7	m2#gate	voltage
	8	m2#sbody	voltage
	9	m3#body	voltage
	10	m3#dbody	voltage
	11	m3#gate	voltage
	12	m3#sbody	voltage
	13	m4#body	voltage
	14	m4#dbody	voltage
	15	m4#gate	voltage
	16	m4#sbody	voltage
	17	n1	voltage
	18	n3	voltage
	19	n4	voltage
	20	v-sweep	voltage
	21	i(v1)	current
	22	i(v2)	current
	23	vp	voltage
Values:
 0	0.000000000000000e+00
	4.881971590066231e-13
	2.143985111623381e-12
	5.957069452810122e-01
	2.440985795014029e-13
	1.267576750606216e-14
	6.340916198413816e-15
	5.957069447459018e-01
	6.337883752981525e-15
	1.164426233599097e-14
	5.822131167934933e-15
	5.957062947790109e-01
	5.825248166620395e-15
	1.639966563451117e-12
	5.362785406001204e-12
	5.957069409390540e-01
	2.727369198075567e-12
	5.957069508183361e-01
	2.433190256707103e-01
	2.915884089187546e-07
	0.000000000000000e+00
	-5.000000000000000e-05
	2.082441783553570e-08
	1.300000000000000e+00

 1	5.000000000000000e-02
	4.882171712559344e-13
	2.144056798103341e-12
	5.957227999725792e-01
	2.441085856260585e-13
	1.212835674455271e-13
	4.950177112788455e-13
	5.957227995783146e-01
	6.064178372228941e-14
	2.241972821079094e-13
	5.512470345319632e-13
	5.957224261015692e-01
	5.528638514285294e-13
	1.640015785900506e-12
	5.362928927419468e-12
	5.957227956297952e-01
	2.727455489851323e-12
	5.957228055108356e-01
	2.433272494570894e-01
	4.939774665679703e-02
	5.000000000000000e-02
	-5.000000000000000e-05
	-2.057942691418536e-05
	1.300000000000000e+00

 2	1.000000000000000e-01
	4.882301231133756e-13
	2.144103191034188e-12
	5.957330602300844e-01
	2.441150615547791e-13
	2.155439765282071e-13
	9.190321842318290e-13
	5.957330599773771e-01
	1.077719882632609e-13
	4.121884166833692e-13
	1.029524109102530e-12
	5.957328602773735e-01
	1.024687335592105e-12
	1.640047640294600e-12
	5.363021806552218e-12
	5.957330558867664e-01
	2.727511334177150e-12
	5.957330657689445e-01
	2.433325715551758e-01
	9.839078456620848e-02
	1.000000000000000e-01
	-5.000000000000000e-05
	-3.515081536162526e-05
	1.300000000000000e+00

 3	1.500000000000000e-01
	4.882381314290013e-13
	2.144131875211629e-12
	5.957394038324404e-01
	2.441190657125919e-13
	3.056276780986621e-13
	1.324082737171290e-12
	5.957394036954607e-01
	1.528138390481362e-13
	5.954618221962700e-13
	1.497503734825700e-12
	5.957393085532169e-01
	1.476473527280180e-12
	1.640067335121203e-12
	5.363079230985918e-12
	5.957393994887918e-01
	2.727545861688371e-12
	5.957394093716735e-01
	2.433358621200763e-01
	1.462042292219169e-01
	1.500000000000000e-01
	-5.000000000000000e-05
	-4.399979099053799e-05
	1.300000000000000e+00

 4	2.000000000000000e-01
	4.882425990120142e-13
	2.144147876889959e-12
	5.957429426124290e-01
	2.441212995040983e-13
	3.885133541457259e-13
	1.696496557720853e-12
	5.957429425557729e-01
	1.942566770713441e-13
	7.717892149910920e-13
	1.960861735682149e-12
	5.957429041283577e-01
	1.895629751197274e-12
	1.640078321940591e-12
	5.363111265247050e-12
	5.957429382685961e-01
	2.727565123028559e-12
	5.957429481518705e-01
	2.433376977800941e-01
	1.903049669665762e-01
	2.000000000000000e-01
	-5.000000000000000e-05
	-4.814121449589498e-05
	1.300000000000000e+00

 5	2.500000000000000e-01
	4.882444882896116e-13
	2.144154643667442e-12
	5.957444390658799e-01
	2.441222441428970e-13
	4.526547874344957e-13
	1.984454542395310e-12
	5.957444390500859e-01
	2.263273937154782e-13
	9.298484355222716e-13
	2.414919459002473e-12
	5.957444239002698e-01
	2.230550088951941e-12
	1.640082967993504e-12
	5.363124811675031e-12
	5.957444347219693e-01
	2.727573268212166e-12
	5.957444446054093e-01
	2.433384740406319e-01
	2.244186568095680e-01
	2.500000000000000e-01
	-5.000000000000000e-05
	-4.955422455344316e-05
	1.300000000000000e+00

 6	3.000000000000000e-01
	4.882450456788327e-13
	2.144156640065415e-12
	5.957448805679463e-01
	2.441225228375076e-13
	4.803428366616187e-13
	2.108701440406130e-12
	5.957448805647945e-01
	2.401714183289315e-13
	1.052930126993592e-12
	2.851464371878098e-12
	5.957448722225327e-01
	2.402494361826941e-12
	1.640084338724282e-12
	5.363128808306108e-12
	5.957448762240126e-01
	2.727575671286365e-12
	5.957448861075018e-01
	2.433387030604828e-01
	2.391383016281549e-01
	3.000000000000000e-01
	-5.000000000000000e-05
	-4.989658092313773e-05
	1.300000000000000e+00

 7	3.500000000000000e-01
	4.882451958808885e-13
	2.144157178042704e-12
	5.957449995411688e-01
	2.441225979385355e-13
	4.850372513240602e-13
	2.129764477919060e-12
	5.957449995399358e-01
	2.425186256601339e-13
	1.154942809514139e-12
	3.277471301121203e-12
	5.957449931844453e-01
	2.472216602105290e-12
	1.640084708100374e-12
	5.363129885293374e-12
	5.957449951972288e-01
	2.727576318852141e-12
	5.957450050807311e-01
	2.433387647753602e-01
	2.416336538738397e-01
	3.500000000000000e-01
	-5.000000000000000e-05
	-4.994507898921894e-05
	1.300000000000000e+00

 8	4.000000000000000e-01
	4.882452653015117e-13
	2.144157426685666e-12
	5.957450545285403e-01
	2.441226326488471e-13
	4.862591745617786e-13
	2.135246742127188e-12
	5.957450545277831e-01
	2.431295872789882e-13
	1.254069888415479e-12
	3.702034925162143e-12
	5.957450491326337e-01
	2.526651459679928e-12
	1.640084878819451e-12
	5.363130383058222e-12
	5.957450501845973e-01
	2.727576618145008e-12
	5.957450600681059e-01
	2.433387932988089e-01
	2.422831401732994e-01
	4.000000000000000e-01
	-5.000000000000000e-05
	-4.995675584638188e-05
	1.300000000000000e+00

 9	4.500000000000000e-01
	4.882453041220390e-13
	2.144157565728783e-12
	5.957450852776787e-01
	2.441226520591107e-13
	4.869754063055213e-13
	2.138460004295316e-12
	5.957450852771849e-01
	2.434877031508568e-13
	1.352831614818222e-12
	4.126415800118883e-12
	5.957450804193377e-01
	2.578887477018571e-12
	1.640084974286412e-12
	5.363130661410255e-12
	5.957450809337342e-01
	2.727576785511721e-12
	5.957450908172461e-01
	2.433388092493502e-01
	2.426638158915318e-01
	4.500000000000000e-01
	-5.000000000000000e-05
	-4.996302684855765e-05
	1.300000000000000e+00

 10	4.999999999999999e-01
	4.882453258103362e-13
	2.144157643409528e-12
	5.957451024566706e-01
	2.441226629032593e-13
	4.874611485576121e-13
	2.140639334958347e-12
	5.957451024563661e-01
	2.437305742769003e-13
	1.451409352708718e-12
	4.550704670281158e-12
	5.957450978943576e-01
	2.630112811746590e-12
	1.640085027622058e-12
	5.363130816920523e-12
	5.957450981127251e-01
	2.727576879016353e-12
	5.957451079962389e-01
	2.433388181606138e-01
	2.429220021686480e-01
	4.999999999999999e-01
	-5.000000000000000e-05
	-4.996768015839319e-05
	1.300000000000000e+00

 11	5.499999999999999e-01
	4.882453374285340e-13
	2.144157685022304e-12
	5.957451116592798e-01
	2.441226687123582e-13
	4.878849722358936e-13
	2.142540864117074e-12
	5.957451116591400e-01
	2.439424861160394e-13
	1.549948028792519e-12
	4.974974008015314e-12
	5.957451072491651e-01
	2.681071772523706e-12
	1.640085056193415e-12
	5.363130900225775e-12
	5.957451073153339e-01
	2.727576929105823e-12
	5.957451171988487e-01
	2.433388229342860e-01
	2.431472772569351e-01
	5.499999999999999e-01
	-5.000000000000000e-05
	-4.997172112380422e-05
	1.300000000000000e+00

 12	6.000000000000000e-01
	4.882453433391713e-13
	2.144157706192373e-12
	5.957451163410110e-01
	2.441226716676769e-13
	4.882779634004476e-13
	2.144304059749829e-12
	5.957451163410236e-01
	2.441389816983149e-13
	1.648468445105459e-12
	5.399234215643422e-12
	5.957451120013897e-01
	2.731898685715892e-12
	1.640085070728795e-12
	5.363130942606452e-12
	5.957451119970650e-01
	2.727576954588320e-12
	5.957451218805804e-01
	2.433388253628423e-01
	2.433561639498404e-01
	6.000000000000000e-01
	-5.000000000000000e-05
	-4.997544937066780e-05
	1.300000000000000e+00

 13	6.500000000000000e-01
	4.882453496778507e-13
	2.144157728895557e-12
	5.957451213617849e-01
	2.441226748370166e-13
	4.886530809670791e-13
	2.145987058247648e-12
	5.957451213619427e-01
	2.443265404816292e-13
	1.746978754168973e-12
	5.823489369614898e-12
	5.957451170995839e-01
	2.782649284683486e-12
	1.640085086316805e-12
	5.363130988056263e-12
	5.957451170178387e-01
	2.727576981916233e-12
	5.957451269013546e-01
	2.433388279672724e-01
	2.435555496164720e-01
	6.500000000000000e-01
	-5.000000000000000e-05
	-4.997899240397129e-05
	1.300000000000000e+00

 14	7.000000000000001e-01
	4.882453618032727e-13
	2.144157772325043e-12
	5.957451309661631e-01
	2.441226808997276e-13
	4.890165017702105e-13
	2.147617568314538e-12
	5.957451309664609e-01
	2.445082508831935e-13
	1.845482586769043e-12
	6.247741285350032e-12
	5.957451268659968e-01
	2.833350005188392e-12
	1.640085116135529e-12
	5.363131074998465e-12
	5.957451266222162e-01
	2.727577034192488e-12
	5.957451365057332e-01
	2.433388329493509e-01
	2.437487168522548e-01
	7.000000000000001e-01
	-5.000000000000000e-05
	-4.998241369466951e-05
	1.300000000000000e+00

 15	7.500000000000001e-01
	4.882453839933929e-13
	2.144157851803133e-12
	5.957451485426559e-01
	2.441226919947877e-13
	4.893715872348849e-13
	2.149210667792591e-12
	5.957451485430901e-01
	2.446857936155293e-13
	1.943981832469053e-12
	6.671990907634469e-12
	5.957451447511851e-01
	2.884015189186875e-12
	1.640085170705277e-12
	5.363131234107043e-12
	5.957451441987081e-01
	2.727577129860607e-12
	5.957451540822271e-01
	2.433388420667990e-01
	2.439374518811256e-01
	7.500000000000001e-01
	-5.000000000000000e-05
	-4.998574876075110e-05
	1.300000000000000e+00

 16	8.000000000000002e-01
	4.882454226341807e-13
	2.144157990202366e-12
	5.957451791494980e-01
	2.441227113151816e-13
	4.897203329564947e-13
	2.150775304570558e-12
	5.957451791500658e-01
	2.448601664763328e-13
	2.042477576329998e-12
	7.096238778999277e-12
	5.957451759061604e-01
	2.934653329327445e-12
	1.640085265730356e-12
	5.363131511170911e-12
	5.957451748055487e-01
	2.727577296452365e-12
	5.957451846890709e-01
	2.433388579434740e-01
	2.441228146792916e-01
	8.000000000000002e-01
	-5.000000000000000e-05
	-4.998902118175119e-05
	1.300000000000000e+00

 17	8.500000000000002e-01
	4.882454871707650e-13
	2.144158221352215e-12
	5.957452302680363e-01
	2.441227435834738e-13
	4.900640079982200e-13
	2.152317164046808e-12
	5.957452302687355e-01
	2.450320039971941e-13
	2.140970493739665e-12
	7.520485237138431e-12
	5.957452279494075e-01
	2.985269814188098e-12
	1.640085424438115e-12
	5.363131973913850e-12
	5.957452259240842e-01
	2.727577574688432e-12
	5.957452358076122e-01
	2.433388844601739e-01
	2.443054786725509e-01
	8.500000000000002e-01
	-5.000000000000000e-05
	-4.999224938643479e-05
	1.300000000000000e+00

 18	9.000000000000002e-01
	4.882455913660224e-13
	2.144158594546918e-12
	5.957453127996298e-01
	2.441227956811024e-13
	4.904034674352939e-13
	2.153840070276726e-12
	5.957453128004584e-01
	2.452017337157297e-13
	2.239461036538499e-12
	7.944730507972166e-12
	5.957453119824114e-01
	3.035868266218657e-12
	1.640085680674021e-12
	5.363132721018789e-12
	5.957453084556734e-01
	2.727578023904477e-12
	5.957453183392106e-01
	2.433389272717593e-01
	2.444858967141679e-01
	9.000000000000002e-01
	-5.000000000000000e-05
	-4.999545047607707e-05
	1.300000000000000e+00

 19	9.500000000000003e-01
	4.882457550991392e-13
	2.144159180987287e-12
	5.957454424902348e-01
	2.441228775476608e-13
	4.907393183157993e-13
	2.155346728957575e-12
	5.957454424911912e-01
	2.453696591559811e-13
	2.337949529451056e-12
	8.368974753862763e-12
	5.957454440399771e-01
	3.086451249963134e-12
	1.640086083324587e-12
	5.363133895023666e-12
	5.957454381462718e-01
	2.727578729805171e-12
	5.957454480298233e-01
	2.433389945461336e-01
	2.446643890825569e-01
	9.500000000000003e-01
	-5.000000000000000e-05
	-4.999864294573083e-05
	1.300000000000000e+00

 20	1.000000000000000e+00
	4.882460067820517e-13
	2.144160082435484e-12
	5.957456418443690e-01
	2.441230033891171e-13
	4.910720143264758e-13
	2.156839149975701e-12
	5.957456418454515e-01
	2.455360071613181e-13
	2.436436224790533e-12
	8.793218100966820e-12
	5.957456470396244e-01
	3.137020674627535e-12
	1.640086702259696e-12
	5.363135699647313e-12
	5.957456375003956e-01
	2.727579814881926e-12
	5.957456473839692e-01
	2.433390979570857e-01
	2.448411935082040e-01
	1.000000000000000e+00
	-5.000000000000000e-05
	-5.000184911424423e-05
	1.300000000000000e+00

 21	1.050000000000000e+00
	4.882463867193014e-13
	2.144161443248581e-12
	5.957459427862845e-01
	2.441231933577419e-13
	4.914019138289369e-13
	2.158318904753865e-12
	5.957459427874917e-01
	2.457009569125473e-13
	2.534921337002813e-12
	9.217460656507277e-12
	5.957459534913598e-01
	3.187578039681863e-12
	1.640087636594795e-12
	5.363138423879357e-12
	5.957459384422953e-01
	2.727581452897662e-12
	5.957459483259023e-01
	2.433392540647310e-01
	2.450164956165648e-01
	1.050000000000000e+00
	-5.000000000000000e-05
	-5.000509777483022e-05
	1.300000000000000e+00

 22	1.100000000000000e+00
	4.882469516590375e-13
	2.144163466678072e-12
	5.957463902644561e-01
	2.441234758276099e-13
	4.917293183646849e-13
	2.159787294889171e-12
	5.957463902657867e-01
	2.458646591804200e-13
	2.633405067522259e-12
	9.641702521201320e-12
	5.957464091685979e-01
	3.238124596673909e-12
	1.640089025881909e-12
	5.363142474609394e-12
	5.957463859204436e-01
	2.727583888506363e-12
	5.957463958041003e-01
	2.433394861853186e-01
	2.451904488454708e-01
	1.100000000000000e+00
	-5.000000000000000e-05
	-5.000842740955158e-05
	1.300000000000000e+00

 23	1.150000000000000e+00
	4.882477810463756e-13
	2.144166437265853e-12
	5.957470472042117e-01
	2.441238905212790e-13
	4.920545009247606e-13
	2.161245473325633e-12
	5.957470472056644e-01
	2.460272504604567e-13
	2.731887625818097e-12
	1.006594379978356e-11
	5.957470781513172e-01
	3.288661466790545e-12
	1.640091065486348e-12
	5.363148421460064e-12
	5.957470428601650e-01
	2.727587464210801e-12
	5.957470527438945e-01
	2.433398269603921e-01
	2.453631887163741e-01
	1.150000000000000e+00
	-5.000000000000000e-05
	-5.001189035074569e-05
	1.300000000000000e+00

 24	1.200000000000000e+00
	4.882489854622617e-13
	2.144170751066377e-12
	5.957480011908638e-01
	2.441244927292220e-13
	4.923777292895671e-13
	2.162694541427193e-12
	5.957480011924376e-01
	2.461888646428586e-13
	2.955430631419279e-12
	1.055271530201800e-11
	5.957480496321731e-01
	3.401720427273042e-12
	1.640094027336415e-12
	5.363157057285398e-12
	5.957479968467675e-01
	2.727592656740188e-12
	5.957480067306028e-01
	2.433403218237080e-01
	2.455348442210728e-01
	1.200000000000000e+00
	-5.000000000000000e-05
	-5.001555830446900e-05
	1.300000000000000e+00

 25	1.250000000000000e+00
	4.882507181053679e-13
	2.144176956764837e-12
	5.957493735620154e-01
	2.441253590507751e-13
	4.926992880584480e-13
	2.164135637412904e-12
	5.957493735637093e-01
	2.463496440272978e-13
	4.054399108808345e-12
	1.147719954014310e-11
	5.957494471754288e-01
	3.952484986282759e-12
	1.640098288153452e-12
	5.363169480478146e-12
	5.957493692178476e-01
	2.727600126542547e-12
	5.957493791018352e-01
	2.433410337180512e-01
	2.457055481441222e-01
	1.250000000000000e+00
	-5.000000000000000e-05
	-5.001952984402217e-05
	1.300000000000000e+00

 26	1.300000000000000e+00
	4.882531902738508e-13
	2.144185811115386e-12
	5.957513316658704e-01
	2.441265951350166e-13
	4.930195019644857e-13
	2.165570026929482e-12
	5.957513316676830e-01
	2.465097509803154e-13
	8.939754307650271e-12
	1.429487713898043e-11
	5.957514412004399e-01
	6.396436871925186e-12
	1.640104367512470e-12
	5.363187205937409e-12
	5.957513273216005e-01
	2.727610784512524e-12
	5.957513372058053e-01
	2.433420494546793e-01
	2.458754475845530e-01
	1.300000000000000e+00
	-5.000000000000000e-05
	-5.002394069256730e-05
	1.300000000000000e+00

