Title: dc tb
Date: Sat Mar 23 18:47:23  2024
Plotname: DC transfer characteristic
Flags: real
No. Variables: 24
No. Points: 27
Variables:
	0	n2	voltage
	1	m1#body	voltage
	2	m1#dbody	voltage
	3	m1#gate	voltage
	4	m1#sbody	voltage
	5	m2#body	voltage
	6	m2#dbody	voltage
	7	m2#gate	voltage
	8	m2#sbody	voltage
	9	m3#body	voltage
	10	m3#dbody	voltage
	11	m3#gate	voltage
	12	m3#sbody	voltage
	13	m4#body	voltage
	14	m4#dbody	voltage
	15	m4#gate	voltage
	16	m4#sbody	voltage
	17	n1	voltage
	18	n3	voltage
	19	n4	voltage
	20	v-sweep	voltage
	21	i(v1)	current
	22	i(v2)	current
	23	vp	voltage
Values:
 0	0.000000000000000e+00
	5.703399894340512e-13
	2.526465588512171e-12
	5.726332617563065e-01
	2.851699947147776e-13
	9.049834435688949e-15
	4.525521892379267e-15
	5.726332611719882e-01
	4.524917217808805e-15
	9.929501206835019e-16
	4.964750603365952e-16
	5.726328457477214e-01
	4.970595027879473e-16
	1.769199138984848e-12
	5.254349072323115e-12
	5.726332609315721e-01
	3.116895290423661e-12
	5.726332679257214e-01
	2.888395542090499e-01
	5.814313248646833e-08
	0.000000000000000e+00
	-5.000000000000000e-05
	8.945659239724391e-09
	1.300000000000000e+00

 1	5.000000000000000e-02
	5.703438744078429e-13
	2.526480407963518e-12
	5.726364227737399e-01
	2.851719372016734e-13
	1.184078551030314e-13
	4.965858593470180e-13
	5.726364223477335e-01
	5.920392755104900e-14
	2.175808160948491e-13
	5.479388015254593e-13
	5.726361752410249e-01
	5.384858078797384e-13
	1.769212279858638e-12
	5.254379350392369e-12
	5.726364219490999e-01
	3.116914737816577e-12
	5.726364289433736e-01
	2.888412711282779e-01
	4.977699991138631e-02
	5.000000000000000e-02
	-5.000000000000000e-05
	-2.197319472497249e-05
	1.300000000000000e+00

 2	1.000000000000000e-01
	5.703466495140801e-13
	2.526490992646791e-12
	5.726386819735371e-01
	2.851733247547921e-13
	2.138772359969847e-13
	9.260159783668176e-13
	5.726386817047430e-01
	1.069386179976494e-13
	4.085987874782318e-13
	1.027729294499974e-12
	5.726385425147370e-01
	1.014569403748253e-12
	1.769221669796500e-12
	5.254400989360927e-12
	5.726386811489645e-01
	3.116928629909634e-12
	5.726386881433272e-01
	2.888424974056037e-01
	9.942437002304048e-02
	1.000000000000000e-01
	-5.000000000000000e-05
	-3.685671211645740e-05
	1.300000000000000e+00

 3	1.500000000000000e-01
	5.703485059492118e-13
	2.526498073331976e-12
	5.726401932692794e-01
	2.851742529723579e-13
	3.065887087038764e-13
	1.342799576976316e-12
	5.726401931251174e-01
	1.532943543507298e-13
	5.952323202508162e-13
	1.497388983852973e-12
	5.726401206575212e-01
	1.478150119595213e-12
	1.769227951245787e-12
	5.254415464804406e-12
	5.726401924447521e-01
	3.116937923097866e-12
	5.726401994391740e-01
	2.888433177301414e-01
	1.486326264035912e-01
	1.500000000000000e-01
	-5.000000000000000e-05
	-4.515198305486673e-05
	1.300000000000000e+00

 4	2.000000000000000e-01
	5.703495956407008e-13
	2.526502229542069e-12
	5.726410803647783e-01
	2.851747978181024e-13
	3.961117941118522e-13
	1.744869999070215e-12
	5.726410803010279e-01
	1.980558970543649e-13
	7.785077786011718e-13
	1.964221017487164e-12
	5.726410449595276e-01
	1.927072543304769e-12
	1.769231638321436e-12
	5.254423961558923e-12
	5.726410795402775e-01
	3.116943377997672e-12
	5.726410865347343e-01
	2.888437992427593e-01
	1.962469383327531e-01
	2.000000000000000e-01
	-5.000000000000000e-05
	-4.850100960237543e-05
	1.300000000000000e+00

 5	2.500000000000000e-01
	5.703501210619889e-13
	2.526504233554549e-12
	5.726415080962950e-01
	2.851750605287464e-13
	4.751431714720557e-13
	2.099506040475820e-12
	5.726415080717113e-01
	2.375715857341551e-13
	9.520614863123186e-13
	2.426025984397413e-12
	5.726414905206602e-01
	2.328966096363923e-12
	1.769233416126716e-12
	5.254428058448157e-12
	5.726415072718072e-01
	3.116946008201008e-12
	5.726415142662807e-01
	2.888440314150701e-01
	2.382589259577850e-01
	2.500000000000000e-01
	-5.000000000000000e-05
	-4.952467688914587e-05
	1.300000000000000e+00

 6	3.000000000000000e-01
	5.703503508954558e-13
	2.526505110163812e-12
	5.726416951981648e-01
	2.851751754454799e-13
	5.254778630919737e-13
	2.325274719461730e-12
	5.726416951886641e-01
	2.627389315439157e-13
	1.100440701368269e-12
	2.875219659065258e-12
	5.726416859955081e-01
	2.603756455362885e-12
	1.769234193788379e-12
	5.254429850543106e-12
	5.726416943736824e-01
	3.116947158723870e-12
	5.726417013681634e-01
	2.888441329735196e-01
	2.650051240831506e-01
	3.000000000000000e-01
	-5.000000000000000e-05
	-4.981791435778780e-05
	1.300000000000000e+00

 7	3.500000000000000e-01
	5.703504419022331e-13
	2.526505457273188e-12
	5.726417692845375e-01
	2.851752209488686e-13
	5.431489916947518e-13
	2.404523953224933e-12
	5.726417692791108e-01
	2.715744958452351e-13
	1.226582191219205e-12
	3.313290991973467e-12
	5.726417639289608e-01
	2.737240775201410e-12
	1.769234501717684e-12
	5.254430560155593e-12
	5.726417684600574e-01
	3.116947614294312e-12
	5.726417754545413e-01
	2.888441731874318e-01
	2.743935083051641e-01
	3.500000000000000e-01
	-5.000000000000000e-05
	-4.988821734423071e-05
	1.300000000000000e+00

 8	4.000000000000000e-01
	5.703504876686830e-13
	2.526505631831193e-12
	5.726418065418617e-01
	2.851752438320935e-13
	5.506552328862916e-13
	2.438185700173572e-12
	5.726418065380330e-01
	2.753276164409754e-13
	1.348446437815230e-12
	3.749223199861664e-12
	5.726418032469760e-01
	2.828081493096045e-12
	1.769234656572393e-12
	5.254430917012896e-12
	5.726418057173825e-01
	3.116947843396347e-12
	5.726418127118679e-01
	2.888441934106253e-01
	2.783812898739866e-01
	4.000000000000000e-01
	-5.000000000000000e-05
	-4.991500837890162e-05
	1.300000000000000e+00

 9	4.500000000000000e-01
	5.703505160757512e-13
	2.526505740178682e-12
	5.726418296673665e-01
	2.851752580356276e-13
	5.566808431664258e-13
	2.465207010380233e-12
	5.726418296647641e-01
	2.783404215810188e-13
	1.470234213919253e-12
	4.185117099668958e-12
	5.726418275860562e-01
	2.912983863994829e-12
	1.769234752690210e-12
	5.254431138513102e-12
	5.726418288428881e-01
	3.116947985599149e-12
	5.726418358373744e-01
	2.888442059630842e-01
	2.815823991994861e-01
	4.500000000000000e-01
	-5.000000000000000e-05
	-4.993523532711075e-05
	1.300000000000000e+00

 10	4.999999999999999e-01
	5.703505347663337e-13
	2.526505811466504e-12
	5.726418448828882e-01
	2.851752673809188e-13
	5.623612152266972e-13
	2.490679683613814e-12
	5.726418448813951e-01
	2.811806076111321e-13
	1.592117589491148e-12
	4.621058788671846e-12
	5.726418435153323e-01
	2.996558020522047e-12
	1.769234815931355e-12
	5.254431284250095e-12
	5.726418440584102e-01
	3.116948079162210e-12
	5.726418510528971e-01
	2.888442142220431e-01
	2.846000436514536e-01
	4.999999999999999e-01
	-5.000000000000000e-05
	-4.995328083297139e-05
	1.300000000000000e+00

 11	5.499999999999999e-01
	5.703505476552353e-13
	2.526505860626110e-12
	5.726418553754132e-01
	2.851752738253697e-13
	5.678788920543933e-13
	2.515422412877356e-12
	5.726418553749597e-01
	2.839394460249584e-13
	1.714022441352521e-12
	5.057011214294700e-12
	5.726418544232241e-01
	3.079494321258135e-12
	1.769234859542037e-12
	5.254431384749380e-12
	5.726418545509356e-01
	3.116948143682678e-12
	5.726418615454230e-01
	2.888442199173661e-01
	2.875312112759945e-01
	5.499999999999999e-01
	-5.000000000000000e-05
	-4.996999762235709e-05
	1.300000000000000e+00

 12	6.000000000000000e-01
	5.703505578642783e-13
	2.526505899564458e-12
	5.726418636863331e-01
	2.851752789298912e-13
	5.733216284480395e-13
	2.539828741607073e-12
	5.726418636868686e-01
	2.866608142217601e-13
	1.835953802361240e-12
	5.492976894270609e-12
	5.726418630166650e-01
	3.162144948152133e-12
	1.769234894085191e-12
	5.254431464352860e-12
	5.726418628618557e-01
	3.116948194788060e-12
	5.726418698563434e-01
	2.888442244285184e-01
	2.904225236371655e-01
	6.000000000000000e-01
	-5.000000000000000e-05
	-4.998573469465071e-05
	1.300000000000000e+00

 13	6.500000000000000e-01
	5.703505702518870e-13
	2.526505946812081e-12
	5.726418737707665e-01
	2.851752851236955e-13
	5.787204929051271e-13
	2.564038010989672e-12
	5.726418737722494e-01
	2.893602464502825e-13
	1.957904541215283e-12
	5.928952263137260e-12
	5.726418735147629e-01
	3.244630142181920e-12
	1.769234935999700e-12
	5.254431560943370e-12
	5.726418729462894e-01
	3.116948256799108e-12
	5.726418799407774e-01
	2.888442299023311e-01
	2.932904879833077e-01
	6.500000000000000e-01
	-5.000000000000000e-05
	-5.000065806021908e-05
	1.300000000000000e+00

 14	7.000000000000001e-01
	5.703505876940785e-13
	2.526506013338400e-12
	5.726418879700079e-01
	2.851752938447913e-13
	5.840909044482624e-13
	2.588119381414386e-12
	5.726418879724012e-01
	2.920454522218290e-13
	2.079870420918602e-12
	6.364935202423933e-12
	5.726418884150308e-01
	3.327009235508844e-12
	1.769234995016822e-12
	5.254431696946250e-12
	5.726418871455313e-01
	3.116948344112854e-12
	5.726418941400199e-01
	2.888442376096521e-01
	2.961432975219817e-01
	7.000000000000001e-01
	-5.000000000000000e-05
	-5.001487032697458e-05
	1.300000000000000e+00

 15	7.500000000000001e-01
	5.703506138207763e-13
	2.526506112988316e-12
	5.726419092390840e-01
	2.851753069081402e-13
	5.894414687030705e-13
	2.612111456705478e-12
	5.726419092423540e-01
	2.947207343492120e-13
	2.201848773463675e-12
	6.800924378130812e-12
	5.726419108705295e-01
	3.409315194969606e-12
	1.769235083418705e-12
	5.254431900665271e-12
	5.726419084146080e-01
	3.116948474900306e-12
	5.726419154090974e-01
	2.888442491544647e-01
	2.989855255313997e-01
	7.500000000000001e-01
	-5.000000000000000e-05
	-5.002844583900127e-05
	1.300000000000000e+00

 16	8.000000000000002e-01
	5.703506540296548e-13
	2.526506266349108e-12
	5.726419419720971e-01
	2.851753270125794e-13
	5.947774373704400e-13
	2.636037797725107e-12
	5.726419419762124e-01
	2.973887186828757e-13
	2.323837837485284e-12
	7.236918909575864e-12
	5.726419455705206e-01
	3.491568074752143e-12
	1.769235219468816e-12
	5.254432214187942e-12
	5.726419411476220e-01
	3.116948676181627e-12
	5.726419481421127e-01
	2.888442669218813e-01
	3.018199631896086e-01
	8.000000000000002e-01
	-5.000000000000000e-05
	-5.004144454030769e-05
	1.300000000000000e+00

 17	8.500000000000002e-01
	5.703507162457381e-13
	2.526506503647606e-12
	5.726419926205983e-01
	2.851753581206210e-13
	6.001022294916505e-13
	2.659913744158044e-12
	5.726419926255299e-01
	3.000511147434600e-13
	2.445836381563241e-12
	7.672918181049076e-12
	5.726419994002501e-01
	3.573780889190404e-12
	1.769235429982126e-12
	5.254432699308381e-12
	5.726419917961247e-01
	3.116948987628602e-12
	5.726419987906175e-01
	2.888442944137921e-01
	3.046484277183933e-01
	8.500000000000002e-01
	-5.000000000000000e-05
	-5.005391851170538e-05
	1.300000000000000e+00

 18	9.000000000000002e-01
	5.703508119618860e-13
	2.526506868718707e-12
	5.726420705406102e-01
	2.851754059786950e-13
	6.054181868585722e-13
	2.683749801559687e-12
	5.726420705463305e-01
	3.027090934268999e-13
	2.567843505306148e-12
	8.108921742354760e-12
	5.726420823452982e-01
	3.655962522644183e-12
	1.769235753845649e-12
	5.254433445640273e-12
	5.726420697161391e-01
	3.116949466773184e-12
	5.726420767106348e-01
	2.888443367086315e-01
	3.074721636235026e-01
	9.000000000000002e-01
	-5.000000000000000e-05
	-5.006591581238433e-05
	1.300000000000000e+00

 19	9.500000000000003e-01
	5.703509576924291e-13
	2.526507424549619e-12
	5.726421891759699e-01
	2.851754788439665e-13
	6.107269818224098e-13
	2.707553469267336e-12
	5.726421891824527e-01
	3.053634909087977e-13
	2.689858532696947e-12
	8.544929255484389e-12
	5.726422087540377e-01
	3.738119300175689e-12
	1.769236246936877e-12
	5.254434581951144e-12
	5.726421883515024e-01
	3.116950196284121e-12
	5.726421953460027e-01
	2.888444011036987e-01
	3.102920592254229e-01
	9.500000000000003e-01
	-5.000000000000000e-05
	-5.007748327829037e-05
	1.300000000000000e+00

 20	1.000000000000000e+00
	5.703511769476678e-13
	2.526508260810731e-12
	5.726423676656889e-01
	2.851755884715859e-13
	6.160298528306549e-13
	2.731330295381513e-12
	5.726423676729094e-01
	3.080149264128994e-13
	2.811880955692575e-12
	8.980940466416433e-12
	5.726423990537386e-01
	3.820255896560017e-12
	1.769236988804614e-12
	5.254436291557996e-12
	5.726423668412266e-01
	3.116951293851006e-12
	5.726423738357340e-01
	2.888444979876355e-01
	3.131087716186758e-01
	1.000000000000000e+00
	-5.000000000000000e-05
	-5.008866902895311e-05
	1.300000000000000e+00

 21	1.050000000000000e+00
	5.703515029595800e-13
	2.526509504251505e-12
	5.726426330627986e-01
	2.851757514775420e-13
	6.213277486916380e-13
	2.755084521908868e-12
	5.726426330707332e-01
	3.106638743433701e-13
	2.933910407636722e-12
	9.416955191822736e-12
	5.726426821183532e-01
	3.902375896000568e-12
	1.769238091891435e-12
	5.254438833579864e-12
	5.726426322383442e-01
	3.116952925828527e-12
	5.726426392328621e-01
	2.888446420448249e-01
	3.159228030714482e-01
	1.050000000000000e+00
	-5.000000000000000e-05
	-5.009952514216365e-05
	1.300000000000000e+00

 22	1.100000000000000e+00
	5.703519823893784e-13
	2.526511332841058e-12
	5.726430233524016e-01
	2.851759911924412e-13
	6.266214219888285e-13
	2.778819501184551e-12
	5.726430233610279e-01
	3.133107109919445e-13
	3.055946656369598e-12
	9.852973315623404e-12
	5.726430984898638e-01
	3.984482158397882e-12
	1.769239714078107e-12
	5.254442571845422e-12
	5.726430225279590e-01
	3.116955325795476e-12
	5.726430295224921e-01
	2.888448538936224e-01
	3.187345503195542e-01
	1.100000000000000e+00
	-5.000000000000000e-05
	-5.011011082682257e-05
	1.300000000000000e+00

 23	1.150000000000000e+00
	5.703526803672964e-13
	2.526513994989533e-12
	5.726435915541045e-01
	2.851763401814002e-13
	6.319114932995450e-13
	2.802537980444988e-12
	5.726435915634008e-01
	3.159557466472818e-13
	3.177989612370199e-12
	1.028899479305794e-11
	5.726437047573514e-01
	4.066577075883189e-12
	1.769242075735391e-12
	5.254448014187125e-12
	5.726435907296789e-01
	3.116958819782117e-12
	5.726435977242343e-01
	2.888451623132075e-01
	3.215443382270961e-01
	1.150000000000000e+00
	-5.000000000000000e-05
	-5.012049642760623e-05
	1.300000000000000e+00

 24	1.200000000000000e+00
	5.703536873563565e-13
	2.526517835725435e-12
	5.726444113089428e-01
	2.851768436759302e-13
	6.371984986269961e-13
	2.826242309860886e-12
	5.726444113188888e-01
	3.185992493109866e-13
	3.300039350463444e-12
	1.072501966153879e-11
	5.726445795192782e-01
	4.148662767988092e-12
	1.769245482946568e-12
	5.254455865954416e-12
	5.726444104845417e-01
	3.116963860626892e-12
	5.726444174791294e-01
	2.888456072762950e-01
	3.243524443611179e-01
	1.200000000000000e+00
	-5.000000000000000e-05
	-5.013076865244053e-05
	1.300000000000000e+00

 25	1.250000000000000e+00
	5.703551284075434e-13
	2.526523331992283e-12
	5.726455844124354e-01
	2.851775642015237e-13
	6.424829275946085e-13
	2.849934607490846e-12
	5.726455844230114e-01
	3.212414637947719e-13
	3.429489164934749e-12
	1.116474456820864e-11
	5.726458314245113e-01
	4.234437755057580e-12
	1.769250358820016e-12
	5.254467102167931e-12
	5.726455835880693e-01
	3.116971074301741e-12
	5.726455905827031e-01
	2.888462440383198e-01
	3.271591184383358e-01
	1.250000000000000e+00
	-5.000000000000000e-05
	-5.014103748017702e-05
	1.300000000000000e+00

 26	1.300000000000000e+00
	5.703571756806334e-13
	2.526531140397474e-12
	5.726472510048315e-01
	2.851785878380687e-13
	6.477652575045872e-13
	2.873616903430579e-12
	5.726472510160187e-01
	3.238826287497405e-13
	5.674525754100123e-12
	1.266226286221760e-11
	5.726476100483169e-01
	5.377997177646530e-12
	1.769257285848409e-12
	5.254483065125948e-12
	5.726472501805152e-01
	3.116981322580138e-12
	5.726472571752147e-01
	2.888471486692015e-01
	3.299645992737766e-01
	1.300000000000000e+00
	-5.000000000000000e-05
	-5.015144593252920e-05
	1.300000000000000e+00

