Title: dc tb
Date: Sun Jan 29 11:30:46  2023
Plotname: DC transfer characteristic
Flags: real
No. Variables: 24
No. Points: 27
Variables:
	0	n2	voltage
	1	m1#body	voltage
	2	m1#dbody	voltage
	3	m1#gate	voltage
	4	m1#sbody	voltage
	5	m2#body	voltage
	6	m2#dbody	voltage
	7	m2#gate	voltage
	8	m2#sbody	voltage
	9	m3#body	voltage
	10	m3#dbody	voltage
	11	m3#gate	voltage
	12	m3#sbody	voltage
	13	m4#body	voltage
	14	m4#dbody	voltage
	15	m4#gate	voltage
	16	m4#sbody	voltage
	17	n1	voltage
	18	n3	voltage
	19	n4	voltage
	20	v-sweep	voltage
	21	i(v1)	current
	22	i(v2)	current
	23	vp	voltage
Values:
 0	0.000000000000000e+00
	5.714712784674155e-13
	2.365673737674694e-12
	5.954493555410436e-01
	2.857356392313824e-13
	5.114303492285828e-14
	2.557605147390043e-14
	5.954493534216410e-01
	2.557151746122104e-14
	2.315367427846092e-14
	1.157683713911006e-14
	5.954467604148317e-01
	1.158288820342132e-14
	1.703504274338003e-12
	5.392622461926220e-12
	5.954493537706985e-01
	3.021687314753596e-12
	5.954493775488662e-01
	2.673254047345376e-01
	4.359737418058289e-07
	0.000000000000000e+00
	-5.000000000000000e-05
	5.512662854186719e-08
	1.300000000000000e+00

 1	5.000000000000000e-02
	5.715421697915234e-13
	2.365840344855001e-12
	5.954822956104792e-01
	2.857710848934361e-13
	1.603767364302758e-13
	5.169557173814335e-13
	5.954822940261599e-01
	8.018836821448532e-14
	2.465269238245999e-13
	5.624118553902201e-13
	5.954808092152637e-01
	6.368567002281527e-13
	1.703606909976289e-12
	5.392920830323557e-12
	5.954822938406228e-01
	3.021869796065170e-12
	5.954823176260071e-01
	2.673428927176447e-01
	4.969943672495344e-02
	5.000000000000000e-02
	-5.000000000000000e-05
	-2.048549636198984e-05
	1.300000000000000e+00

 2	1.000000000000000e-01
	5.715892991849131e-13
	2.365951082541904e-12
	5.955041872885093e-01
	2.857946495901307e-13
	2.555598109277662e-13
	9.451060111785476e-13
	5.955041862538569e-01
	1.277799054628432e-13
	4.354954074387857e-13
	1.041177604480150e-12
	5.955033980791767e-01
	1.123130023151249e-12
	1.703675122515329e-12
	5.393119124216474e-12
	5.955041855189774e-01
	3.021991076636299e-12
	5.955042093091589e-01
	2.673545156373122e-01
	9.919279049851720e-02
	1.000000000000000e-01
	-5.000000000000000e-05
	-3.504050100302454e-05
	1.300000000000000e+00

 3	1.500000000000000e-01
	5.716192407745590e-13
	2.366021421116180e-12
	5.955180911353065e-01
	2.858096203849536e-13
	3.476132913730730e-13
	1.359120648051354e-12
	5.955180905575311e-01
	1.738066456851220e-13
	6.202746645958209e-13
	1.509910156025382e-12
	5.955177226933085e-01
	1.585157736515997e-12
	1.703718446708048e-12
	5.393245065188064e-12
	5.955180893659808e-01
	3.022068107344663e-12
	5.955181131592100e-01
	2.673618979154113e-01
	1.480744892215611e-01
	1.500000000000000e-01
	-5.000000000000000e-05
	-4.389331081029784e-05
	1.300000000000000e+00

 4	2.000000000000000e-01
	5.716364540922130e-13
	2.366061854736159e-12
	5.955260832943067e-01
	2.858182270437805e-13
	4.356107165244359e-13
	1.754766327548651e-12
	5.955260830406282e-01
	2.178053582604455e-13
	8.014939749595168e-13
	1.975714115666251e-12
	5.955259441365851e-01
	2.027660117300835e-12
	1.703743350442639e-12
	5.393317458261798e-12
	5.955260815250992e-01
	3.022112386651579e-12
	5.955261053200804e-01
	2.673661414570745e-01
	1.949334450282692e-01
	2.000000000000000e-01
	-5.000000000000000e-05
	-4.802172266674598e-05
	1.300000000000000e+00

 5	2.500000000000000e-01
	5.716439193278929e-13
	2.366079389022814e-12
	5.955295489967025e-01
	2.858219596616204e-13
	5.115418901948578e-13
	2.096025871946595e-12
	5.955295489150267e-01
	2.557709450953474e-13
	9.711027120064722e-13
	2.435546597244418e-12
	5.955295028255517e-01
	2.415796236421396e-12
	1.703754149758913e-12
	5.393348850693951e-12
	5.955295472275466e-01
	3.022131588185982e-12
	5.955295710232875e-01
	2.673679816565362e-01
	2.353684402048827e-01
	2.500000000000000e-01
	-5.000000000000000e-05
	-4.942634515205026e-05
	1.300000000000000e+00

 6	3.000000000000000e-01
	5.716463473665220e-13
	2.366085092106599e-12
	5.955306762458727e-01
	2.858231736809350e-13
	5.565562536257588e-13
	2.298286544320484e-12
	5.955306762289038e-01
	2.782781268106147e-13
	1.110676622302683e-12
	2.880337619532427e-12
	5.955306585243600e-01
	2.665342785830216e-12
	1.703757662312967e-12
	5.393359061341721e-12
	5.955306744767336e-01
	3.022137833594956e-12
	5.955306982727216e-01
	2.673685801909689e-01
	2.593348941507566e-01
	3.000000000000000e-01
	-5.000000000000000e-05
	-4.981296357912165e-05
	1.300000000000000e+00

 7	3.500000000000000e-01
	5.716469906425233e-13
	2.366086603052011e-12
	5.955309748925218e-01
	2.858234953189356e-13
	5.676974693165822e-13
	2.348341927924323e-12
	5.955309748882202e-01
	2.838487346559811e-13
	1.218514344314811e-12
	3.309257068521300e-12
	5.955309656250640e-01
	2.763747202816914e-12
	1.703758592908689e-12
	5.393361766489970e-12
	5.955309731233870e-01
	3.022139488218106e-12
	5.955309969194406e-01
	2.673687387633045e-01
	2.652661109027639e-01
	3.500000000000000e-01
	-5.000000000000000e-05
	-4.987921575958008e-05
	1.300000000000000e+00

 8	4.000000000000000e-01
	5.716472313450622e-13
	2.366087168420138e-12
	5.955310866405297e-01
	2.858236156702050e-13
	5.695652275847381e-13
	2.356733025381747e-12
	5.955310866382785e-01
	2.847826137900515e-13
	1.318150207200736e-12
	3.734075084554531e-12
	5.955310810872911e-01
	2.821022471839890e-12
	1.703758941120338e-12
	5.393362778706049e-12
	5.955310848713964e-01
	3.022140107347477e-12
	5.955311086674745e-01
	2.673687980981422e-01
	2.662603934299281e-01
	4.000000000000000e-01
	-5.000000000000000e-05
	-4.988981323107841e-05
	1.300000000000000e+00

 9	4.500000000000000e-01
	5.716473588977829e-13
	2.366087468018654e-12
	5.955311458578866e-01
	2.858236794465654e-13
	5.703185349485621e-13
	2.360117264586565e-12
	5.955311458564576e-01
	2.851592674719604e-13
	1.416906459654409e-12
	4.158453222536737e-12
	5.955311423269993e-01
	2.873408230906913e-12
	1.703759125644059e-12
	5.393363315098189e-12
	5.955311440887542e-01
	3.022140435435037e-12
	5.955311678848453e-01
	2.673688295407025e-01
	2.666613995760706e-01
	4.500000000000000e-01
	-5.000000000000000e-05
	-4.989406157923139e-05
	1.300000000000000e+00

 10	4.999999999999999e-01
	5.716474281187109e-13
	2.366087630606420e-12
	5.955311779941341e-01
	2.858237140570294e-13
	5.708467299248079e-13
	2.362490214122995e-12
	5.955311779932720e-01
	2.854233649600811e-13
	1.515508301568466e-12
	4.582754144710792e-12
	5.955311755360848e-01
	2.924818035568382e-12
	1.703759225782090e-12
	5.393363606189117e-12
	5.955311762250021e-01
	3.022140613483278e-12
	5.955312000211004e-01
	2.673688466041291e-01
	2.669425763322136e-01
	4.999999999999999e-01
	-5.000000000000000e-05
	-4.989695892907114e-05
	1.300000000000000e+00

 11	5.499999999999999e-01
	5.716474633849560e-13
	2.366087713440601e-12
	5.955311943667069e-01
	2.858237316901519e-13
	5.712835772819558e-13
	2.364452828762333e-12
	5.955311943663156e-01
	2.856417886386533e-13
	1.614047664140051e-12
	5.007023825688839e-12
	5.955311924179341e-01
	2.975831934321568e-12
	1.703759276799779e-12
	5.393363754492287e-12
	5.955311925975753e-01
	3.022140704194162e-12
	5.955312163936770e-01
	2.673688552974947e-01
	2.671751321821106e-01
	5.499999999999999e-01
	-5.000000000000000e-05
	-4.989936294406418e-05
	1.300000000000000e+00

 12	6.000000000000000e-01
	5.716474795490026e-13
	2.366087751407101e-12
	5.955312018709641e-01
	2.858237397721752e-13
	5.716820619845445e-13
	2.366243124942387e-12
	5.955312018710012e-01
	2.858410309899461e-13
	1.712563598337290e-12
	5.431281792259097e-12
	5.955312001120566e-01
	3.026680979241039e-12
	1.703759300183394e-12
	5.393363822466036e-12
	5.955312001018325e-01
	3.022140745770895e-12
	5.955312238979359e-01
	2.673688592820416e-01
	2.673872700271031e-01
	6.000000000000000e-01
	-5.000000000000000e-05
	-4.990154083755203e-05
	1.300000000000000e+00

 13	6.500000000000000e-01
	5.716474974021709e-13
	2.366087793341058e-12
	5.955312101594018e-01
	2.858237486987594e-13
	5.720595186550537e-13
	2.367938940142056e-12
	5.955312101598437e-01
	2.860297593251991e-13
	1.811067227283517e-12
	5.855533606171929e-12
	5.955312086242565e-01
	3.077439903127090e-12
	1.703759326010558e-12
	5.393363897542916e-12
	5.955312083902705e-01
	3.022140791692346e-12
	5.955312321863757e-01
	2.673688636829695e-01
	2.675882124372293e-01
	6.500000000000000e-01
	-5.000000000000000e-05
	-4.990359607266650e-05
	1.300000000000000e+00

 14	7.000000000000001e-01
	5.716475350094794e-13
	2.366087881673950e-12
	5.955312276188311e-01
	2.858237675024137e-13
	5.724238237980707e-13
	2.369575623722859e-12
	5.955312276196624e-01
	2.862119118967061e-13
	1.909563297433392e-12
	6.279781640681966e-12
	5.955312266498897e-01
	3.128142490808455e-12
	1.703759380414931e-12
	5.393364055690853e-12
	5.955312258497001e-01
	3.022140888424815e-12
	5.955312496458091e-01
	2.673688729534185e-01
	2.677821475057054e-01
	7.000000000000001e-01
	-5.000000000000000e-05
	-4.990557910627069e-05
	1.300000000000000e+00

 15	7.500000000000001e-01
	5.716476068668300e-13
	2.366088050454016e-12
	5.955312609790580e-01
	2.858238034310889e-13
	5.727790663403253e-13
	2.371171515631392e-12
	5.955312609802678e-01
	2.863895331678320e-13
	2.008054151892246e-12
	6.704027067345825e-12
	5.955312611666533e-01
	3.178806209578752e-12
	1.703759484366891e-12
	5.393364357868592e-12
	5.955312592099272e-01
	3.022141073254183e-12
	5.955312830060436e-01
	2.673688906667154e-01
	2.679712479349964e-01
	7.500000000000001e-01
	-5.000000000000000e-05
	-4.990751812289872e-05
	1.300000000000000e+00

 16	8.000000000000002e-01
	5.716477346045734e-13
	2.366088350487002e-12
	5.955313202820774e-01
	2.858238672999607e-13
	5.731275993887541e-13
	2.372737141709220e-12
	5.955313202836579e-01
	2.865637996920450e-13
	2.106541089700604e-12
	7.128270535684340e-12
	5.955313225878532e-01
	3.229441058395427e-12
	1.703759669157754e-12
	5.393364895036774e-12
	5.955313185129478e-01
	3.022141401817278e-12
	5.955313423090771e-01
	2.673689221548695e-01
	2.681567602802861e-01
	8.000000000000002e-01
	-5.000000000000000e-05
	-4.990943428762040e-05
	1.300000000000000e+00

 17	8.500000000000002e-01
	5.716479502377690e-13
	2.366088856970238e-12
	5.955314203909923e-01
	2.858239751165585e-13
	5.734708918652249e-13
	2.374279033004721e-12
	5.955314203929367e-01
	2.867354459302790e-13
	2.205024902076394e-12
	7.552512441306555e-12
	5.955314263257705e-01
	3.280053229548307e-12
	1.703759981101634e-12
	5.393365801825750e-12
	5.955314186218641e-01
	3.022141956461848e-12
	5.955314424180154e-01
	2.673689753097555e-01
	2.683394574095207e-01
	8.500000000000002e-01
	-5.000000000000000e-05
	-4.991134765836946e-05
	1.300000000000000e+00

 18	9.000000000000002e-01
	5.716483004345016e-13
	2.366089679517839e-12
	5.955315829715067e-01
	2.858241502149247e-13
	5.738099298524683e-13
	2.375801519814630e-12
	5.955315829738091e-01
	2.869049649238993e-13
	2.303506115300201e-12
	7.976753047352777e-12
	5.955315948477157e-01
	3.330646823495709e-12
	1.703760487709888e-12
	5.393367274484018e-12
	5.955315812023808e-01
	3.022142857224944e-12
	5.955316049985677e-01
	2.673690616352392e-01
	2.685198509497888e-01
	9.000000000000002e-01
	-5.000000000000000e-05
	-4.991328100052955e-05
	1.300000000000000e+00

 19	9.500000000000003e-01
	5.716488525787800e-13
	2.366090976400641e-12
	5.955318393064498e-01
	2.858244262870640e-13
	5.741454253869528e-13
	2.377307656761907e-12
	5.955318393091059e-01
	2.870727126911402e-13
	2.401985113565432e-12
	8.400992545919711e-12
	5.955318605936001e-01
	3.381224730983760e-12
	1.703761286461359e-12
	5.393369596372274e-12
	5.955318375373276e-01
	3.022144277426685e-12
	5.955318613335708e-01
	2.673691977416227e-01
	2.686983007100884e-01
	9.500000000000003e-01
	-5.000000000000000e-05
	-4.991526316526452e-05
	1.300000000000000e+00

 20	1.000000000000000e+00
	5.716497030028671e-13
	2.366092973880800e-12
	5.955322341171931e-01
	2.858248514991075e-13
	5.744779356893805e-13
	2.378799740829058e-12
	5.955322341201986e-01
	2.872389678423527e-13
	2.500462208551931e-12
	8.825231092847279e-12
	5.955322699392400e-01
	3.431789126258391e-12
	1.703762516710198e-12
	5.393373172577957e-12
	5.955322323480770e-01
	3.022146464842853e-12
	5.955322561444066e-01
	2.673694073747459e-01
	2.688750758029452e-01
	1.000000000000000e+00
	-5.000000000000000e-05
	-4.991733278459796e-05
	1.300000000000000e+00

 21	1.050000000000000e+00
	5.716509883326745e-13
	2.366095992856542e-12
	5.955328308297881e-01
	2.858254941640112e-13
	5.748079389442549e-13
	2.380279627495075e-12
	5.955328308331386e-01
	2.874039694697885e-13
	2.598937684774835e-12
	9.249468830393048e-12
	5.955328886571272e-01
	3.482341767991226e-12
	1.703764376095641e-12
	5.393378577616181e-12
	5.955328290606807e-01
	3.022149770882131e-12
	5.955328528571412e-01
	2.673697242122229e-01
	2.690503917435569e-01
	1.050000000000000e+00
	-5.000000000000000e-05
	-4.991954286158624e-05
	1.300000000000000e+00

 22	1.100000000000000e+00
	5.716529009768802e-13
	2.366100485235886e-12
	5.955337187636874e-01
	2.858264504861140e-13
	5.751358891697275e-13
	2.381748944038811e-12
	5.955337187673798e-01
	2.875679445825235e-13
	2.697411834749982e-12
	9.673705904814940e-12
	5.955338093712008e-01
	3.532884202733549e-12
	1.703767142942937e-12
	5.393386620545626e-12
	5.955337169945935e-01
	3.022154690416167e-12
	5.955337407912485e-01
	2.673701956806169e-01
	2.692244352319396e-01
	1.100000000000000e+00
	-5.000000000000000e-05
	-4.992196677032262e-05
	1.300000000000000e+00

 23	1.150000000000000e+00
	5.716557102447779e-13
	2.366107083523423e-12
	5.955350229313586e-01
	2.858278551200629e-13
	5.754622626088238e-13
	2.383209252671650e-12
	5.955350229353893e-01
	2.877311313020703e-13
	2.795884991889713e-12
	1.009794248281912e-11
	5.955351617189498e-01
	3.583417921303339e-12
	1.703771206800487e-12
	5.393398433734208e-12
	5.955350211622836e-01
	3.022161916076594e-12
	5.955350449592248e-01
	2.673708881590895e-01
	2.693973828109725e-01
	1.150000000000000e+00
	-5.000000000000000e-05
	-4.992470627544570e-05
	1.300000000000000e+00

 24	1.200000000000000e+00
	5.716597910184485e-13
	2.366116668135235e-12
	5.955369173404326e-01
	2.858298955068981e-13
	5.757876034679630e-13
	2.384662194523719e-12
	5.955369173447982e-01
	2.878938017316386e-13
	2.906162451934864e-12
	1.052808121227597e-11
	5.955371261459734e-01
	3.639846940619893e-12
	1.703777109892205e-12
	5.393415593351426e-12
	5.955369155713857e-01
	3.022172411960817e-12
	5.955369393687421e-01
	2.673718940431559e-01
	2.695694170151328e-01
	1.200000000000000e+00
	-5.000000000000000e-05
	-4.992790232968760e-05
	1.300000000000000e+00

 25	1.250000000000000e+00
	5.716656626341172e-13
	2.366130458662864e-12
	5.955396430265719e-01
	2.858328313147325e-13
	5.761125750065018e-13
	2.386109635749488e-12
	5.955396430312697e-01
	2.880562875009067e-13
	3.486695584853358e-12
	1.119334777816773e-11
	5.955399526058712e-01
	3.931398480213973e-12
	1.703785603313216e-12
	5.393440282712731e-12
	5.955396412575654e-01
	3.022187513554253e-12
	5.955396650555195e-01
	2.673733413210045e-01
	2.697407424450899e-01
	1.250000000000000e+00
	-5.000000000000000e-05
	-4.993174975781759e-05
	1.300000000000000e+00

 26	1.300000000000000e+00
	5.716740413742359e-13
	2.366150137047204e-12
	5.955435323877660e-01
	2.858370206847918e-13
	5.764380213734163e-13
	2.387553832674584e-12
	5.955435323927933e-01
	2.882190106843626e-13
	6.072979492633875e-12
	1.286148973148298e-11
	5.955439857957375e-01
	5.225821925352523e-12
	1.703797722865455e-12
	5.393475512704592e-12
	5.955435306188172e-01
	3.022209062577423e-12
	5.955435544176240e-01
	2.673754064970484e-01
	2.699116036646386e-01
	1.300000000000000e+00
	-5.000000000000000e-05
	-4.993651705727795e-05
	1.300000000000000e+00

