Title: emitter degeneration resistors negative feedback simulation testbench
Date: Thu Jul  2 15:15:36  2020
Plotname: DC transfer characteristic
Flags: real
No. Variables: 8
No. Points: 51
Variables:
	0	n2	voltage
	1	n1	voltage
	2	n3	voltage
	3	n4	voltage
	4	n_pos	voltage
	5	v-sweep	voltage
	6	i(v1)	current
	7	i(v2)	current
Values:
 0	0.000000000000000e+00
	6.248007021357270e-01
	2.483508855025695e-02
	7.676133703811265e-04
	5.000000000000000e+00
	0.000000000000000e+00
	-5.000000000000000e-05
	1.476240182062510e-05

 1	1.000000000000000e-01
	7.176838293889296e-01
	8.540497514604714e-02
	7.371822192836777e-02
	5.000000000000000e+00
	1.000000000000000e-01
	-5.000000000000000e-05
	-4.117953238106106e-08

 2	2.000000000000000e-01
	8.060872779994372e-01
	1.576172258657736e-01
	1.513584985319654e-01
	5.000000000000000e+00
	2.000000000000000e-01
	-5.000000000000000e-05
	-1.651812078680500e-05

 3	3.000000000000000e-01
	8.867912912504982e-01
	2.284075598404831e-01
	2.254909638350542e-01
	5.000000000000000e+00
	3.000000000000000e-01
	-5.000000000000000e-05
	-3.276913887656090e-05

 4	4.000000000000000e-01
	9.462937547603649e-01
	2.822140776952347e-01
	2.814060618760866e-01
	5.000000000000000e+00
	4.000000000000000e-01
	-5.000000000000000e-05
	-4.540600086292522e-05

 5	5.000000000000000e-01
	9.621423779902059e-01
	2.967081165458622e-01
	2.964762217201270e-01
	5.000000000000000e+00
	5.000000000000000e-01
	-5.000000000000000e-05
	-4.892115993978990e-05

 6	6.000000000000000e-01
	9.629870828154521e-01
	2.974600399351568e-01
	2.973079654807273e-01
	5.000000000000000e+00
	6.000000000000000e-01
	-5.000000000000000e-05
	-4.912894031278317e-05

 7	7.000000000000000e-01
	9.630034074422447e-01
	2.975013930797313e-01
	2.973859302738836e-01
	5.000000000000000e+00
	7.000000000000000e-01
	-5.000000000000000e-05
	-4.914791992565034e-05

 8	7.999999999999999e-01
	9.630127173729194e-01
	2.975101477150459e-01
	2.974387165370774e-01
	5.000000000000000e+00
	7.999999999999999e-01
	-5.000000000000000e-05
	-4.915815163678223e-05

 9	8.999999999999999e-01
	9.630179060612005e-01
	2.975149146874294e-01
	2.974873326140298e-01
	5.000000000000000e+00
	8.999999999999999e-01
	-5.000000000000000e-05
	-4.916704867718984e-05

 10	9.999999999999999e-01
	9.630224970710524e-01
	2.975191223274006e-01
	2.975352907395841e-01
	5.000000000000000e+00
	9.999999999999999e-01
	-5.000000000000000e-05
	-4.917574336027801e-05

 11	1.100000000000000e+00
	9.630269871270635e-01
	2.975232374480353e-01
	2.975830726418083e-01
	5.000000000000000e+00
	1.100000000000000e+00
	-5.000000000000000e-05
	-4.918439326386601e-05

 12	1.200000000000000e+00
	9.630314492176342e-01
	2.975273269429295e-01
	2.976307485470309e-01
	5.000000000000000e+00
	1.200000000000000e+00
	-5.000000000000000e-05
	-4.919302123057586e-05

 13	1.300000000000000e+00
	9.630358942249646e-01
	2.975314007855502e-01
	2.976783291716156e-01
	5.000000000000000e+00
	1.300000000000000e+00
	-5.000000000000000e-05
	-4.920163070845566e-05

 14	1.400000000000000e+00
	9.630403236666281e-01
	2.975354603666996e-01
	2.977258162572565e-01
	5.000000000000000e+00
	1.400000000000000e+00
	-5.000000000000000e-05
	-4.921022221959614e-05

 15	1.500000000000000e+00
	9.630447377908591e-01
	2.975395059138355e-01
	2.977732103277902e-01
	5.000000000000000e+00
	1.500000000000000e+00
	-5.000000000000000e-05
	-4.921879588922710e-05

 16	1.600000000000000e+00
	9.630491367134308e-01
	2.975435375330198e-01
	2.978205117785712e-01
	5.000000000000000e+00
	1.600000000000000e+00
	-5.000000000000000e-05
	-4.922735180090671e-05

 17	1.700000000000000e+00
	9.630535205247532e-01
	2.975475553070732e-01
	2.978677209791011e-01
	5.000000000000000e+00
	1.700000000000000e+00
	-5.000000000000000e-05
	-4.923589003001564e-05

 18	1.800000000000000e+00
	9.630578893076999e-01
	2.975515593118980e-01
	2.979148382901205e-01
	5.000000000000000e+00
	1.800000000000000e+00
	-5.000000000000000e-05
	-4.924441064933596e-05

 19	1.900000000000001e+00
	9.630622431423822e-01
	2.975555496208748e-01
	2.979618640681961e-01
	5.000000000000000e+00
	1.900000000000001e+00
	-5.000000000000000e-05
	-4.925291373053950e-05

 20	2.000000000000000e+00
	9.630665821076022e-01
	2.975595263061809e-01
	2.980087986671240e-01
	5.000000000000000e+00
	2.000000000000000e+00
	-5.000000000000000e-05
	-4.926139934459033e-05

 21	2.100000000000001e+00
	9.630709062809757e-01
	2.975634894389116e-01
	2.980556424380620e-01
	5.000000000000000e+00
	2.100000000000001e+00
	-5.000000000000000e-05
	-4.926986756188700e-05

 22	2.200000000000001e+00
	9.630752157395414e-01
	2.975674390896251e-01
	2.981023957301263e-01
	5.000000000000000e+00
	2.200000000000001e+00
	-5.000000000000000e-05
	-4.927831845235621e-05

 23	2.300000000000001e+00
	9.630795105597746e-01
	2.975713753283713e-01
	2.981490588903929e-01
	5.000000000000000e+00
	2.300000000000001e+00
	-5.000000000000000e-05
	-4.928675208553956e-05

 24	2.400000000000001e+00
	9.630837908172744e-01
	2.975752982243925e-01
	2.981956322636523e-01
	5.000000000000000e+00
	2.400000000000001e+00
	-5.000000000000000e-05
	-4.929516853045822e-05

 25	2.500000000000001e+00
	9.630880565875221e-01
	2.975792078468321e-01
	2.982421161930915e-01
	5.000000000000000e+00
	2.500000000000001e+00
	-5.000000000000000e-05
	-4.930356785577256e-05

 26	2.600000000000001e+00
	9.630923079450131e-01
	2.975831042639177e-01
	2.982885110195265e-01
	5.000000000000000e+00
	2.600000000000001e+00
	-5.000000000000000e-05
	-4.931195012971270e-05

 27	2.700000000000001e+00
	9.630965449641161e-01
	2.975869875437683e-01
	2.983348170821913e-01
	5.000000000000000e+00
	2.700000000000001e+00
	-5.000000000000000e-05
	-4.932031542014104e-05

 28	2.800000000000001e+00
	9.631007677182722e-01
	2.975908577536533e-01
	2.983810347180165e-01
	5.000000000000000e+00
	2.800000000000001e+00
	-5.000000000000000e-05
	-4.932866379445505e-05

 29	2.900000000000001e+00
	9.631049762808942e-01
	2.975947149608167e-01
	2.984271642624706e-01
	5.000000000000000e+00
	2.900000000000001e+00
	-5.000000000000000e-05
	-4.933699531973996e-05

 30	3.000000000000001e+00
	9.631091707243498e-01
	2.975985592315424e-01
	2.984732060486272e-01
	5.000000000000000e+00
	3.000000000000001e+00
	-5.000000000000000e-05
	-4.934531006256058e-05

 31	3.100000000000001e+00
	9.631133511209580e-01
	2.976023906320752e-01
	2.985191604080946e-01
	5.000000000000000e+00
	3.100000000000001e+00
	-5.000000000000000e-05
	-4.935360808923191e-05

 32	3.200000000000002e+00
	9.631175175422350e-01
	2.976062092279166e-01
	2.985650276703353e-01
	5.000000000000000e+00
	3.200000000000002e+00
	-5.000000000000000e-05
	-4.936188946561100e-05

 33	3.300000000000002e+00
	9.631216700594408e-01
	2.976100150843404e-01
	2.986108081631793e-01
	5.000000000000000e+00
	3.300000000000002e+00
	-5.000000000000000e-05
	-4.937015425715937e-05

 34	3.400000000000002e+00
	9.631258087431689e-01
	2.976138082660101e-01
	2.986565022124463e-01
	5.000000000000000e+00
	3.400000000000002e+00
	-5.000000000000000e-05
	-4.937840252899855e-05

 35	3.500000000000002e+00
	9.631299336635681e-01
	2.976175888371734e-01
	2.987021101421761e-01
	5.000000000000000e+00
	3.500000000000002e+00
	-5.000000000000000e-05
	-4.938663434585453e-05

 36	3.600000000000002e+00
	9.631340448904663e-01
	2.976213568617966e-01
	2.987476322747362e-01
	5.000000000000000e+00
	3.600000000000002e+00
	-5.000000000000000e-05
	-4.939484977202310e-05

 37	3.700000000000002e+00
	9.631381424929097e-01
	2.976251124031190e-01
	2.987930689304185e-01
	5.000000000000000e+00
	3.700000000000002e+00
	-5.000000000000000e-05
	-4.940304887156414e-05

 38	3.800000000000002e+00
	9.631422265398432e-01
	2.976288555242972e-01
	2.988384204280708e-01
	5.000000000000000e+00
	3.800000000000002e+00
	-5.000000000000000e-05
	-4.941123170803791e-05

 39	3.900000000000002e+00
	9.631462970993888e-01
	2.976325862877239e-01
	2.988836870844381e-01
	5.000000000000000e+00
	3.900000000000002e+00
	-5.000000000000000e-05
	-4.941939834470631e-05

 40	4.000000000000002e+00
	9.631503542394929e-01
	2.976363047556417e-01
	2.989288692147784e-01
	5.000000000000000e+00
	4.000000000000002e+00
	-5.000000000000000e-05
	-4.942754884441490e-05

 41	4.100000000000001e+00
	9.631543980274990e-01
	2.976400109897339e-01
	2.989739671324693e-01
	5.000000000000000e+00
	4.100000000000001e+00
	-5.000000000000000e-05
	-4.943568326972475e-05

 42	4.200000000000001e+00
	9.631584285302203e-01
	2.976437050511945e-01
	2.990189811490866e-01
	5.000000000000000e+00
	4.200000000000001e+00
	-5.000000000000000e-05
	-4.944380168275976e-05

 43	4.300000000000001e+00
	9.631624458142919e-01
	2.976473870010686e-01
	2.990639115747396e-01
	5.000000000000000e+00
	4.300000000000001e+00
	-5.000000000000000e-05
	-4.945190414537325e-05

 44	4.400000000000000e+00
	9.631664499456389e-01
	2.976510568997356e-01
	2.991087587175861e-01
	5.000000000000000e+00
	4.400000000000000e+00
	-5.000000000000000e-05
	-4.945999071896055e-05

 45	4.500000000000000e+00
	9.631704409898760e-01
	2.976547148073036e-01
	2.991535228842142e-01
	5.000000000000000e+00
	4.500000000000000e+00
	-5.000000000000000e-05
	-4.946806146465331e-05

 46	4.600000000000000e+00
	9.631744190120676e-01
	2.976583607833669e-01
	2.991982043794323e-01
	5.000000000000000e+00
	4.600000000000000e+00
	-5.000000000000000e-05
	-4.947611644322237e-05

 47	4.699999999999999e+00
	9.631783840769491e-01
	2.976619948872199e-01
	2.992428035064711e-01
	5.000000000000000e+00
	4.699999999999999e+00
	-5.000000000000000e-05
	-4.948415571506386e-05

 48	4.799999999999999e+00
	9.631823362488486e-01
	2.976656171777939e-01
	2.992873205669301e-01
	5.000000000000000e+00
	4.799999999999999e+00
	-5.000000000000000e-05
	-4.949217934026859e-05

 49	4.899999999999999e+00
	9.631862755915019e-01
	2.976692277134612e-01
	2.993317558606100e-01
	5.000000000000000e+00
	4.899999999999999e+00
	-5.000000000000000e-05
	-4.950018737851106e-05

 50	4.999999999999998e+00
	9.631902021684741e-01
	2.976728265524549e-01
	2.993761096859170e-01
	5.000000000000000e+00
	4.999999999999998e+00
	-5.000000000000000e-05
	-4.950817988922984e-05

