Title: simple mos current mirror
Date: Fri Jun 26 14:51:40  2020
Plotname: DC transfer characteristic
Flags: real
No. Variables: 14
No. Points: 27
Variables:
	0	n2	voltage
	1	m1#body	voltage
	2	m1#dbody	voltage
	3	m1#gate	voltage
	4	m1#sbody	voltage
	5	m2#body	voltage
	6	m2#dbody	voltage
	7	m2#gate	voltage
	8	m2#sbody	voltage
	9	n1	voltage
	10	n_pos	voltage
	11	v-sweep	voltage
	12	i(v1)	current
	13	i(v2)	current
Values:
 0	0.000000000000000e+00
	1.214651640178221e-12
	5.409300854621771e-12
	6.302633369570326e-01
	6.073258200844584e-13
	9.087162615292471e-15
	4.543581307598986e-15
	6.302633367137783e-01
	4.543581307611434e-15
	6.302633389037535e-01
	1.300000000000000e+00
	0.000000000000000e+00
	-5.000000000000000e-05
	3.186412714701919e-09

 1	5.000000000000000e-02
	1.214652591280771e-12
	5.409304696201740e-12
	6.302637857608506e-01
	6.073262956357336e-13
	1.188864438251519e-13
	4.985916153910014e-13
	6.302637855713142e-01
	5.944322191212063e-14
	6.302637877075801e-01
	1.300000000000000e+00
	5.000000000000000e-02
	-5.000000000000000e-05
	-1.842035126961265e-05

 2	1.000000000000000e-01
	1.214653548074465e-12
	5.409308560762939e-12
	6.302642372494228e-01
	6.073267740325808e-13
	2.150004006698368e-13
	9.309301010965087e-13
	6.302642371139258e-01
	1.075002003340950e-13
	6.302642391961609e-01
	1.300000000000000e+00
	1.000000000000000e-01
	-5.000000000000000e-05
	-3.213421436446312e-05

 3	1.500000000000000e-01
	1.214654367306064e-12
	5.409311869698836e-12
	6.302646238254291e-01
	6.073271836483801e-13
	3.091823190872808e-13
	1.354363983272280e-12
	6.302646237362020e-01
	1.545911595424563e-13
	6.302646257721747e-01
	1.300000000000000e+00
	1.500000000000000e-01
	-5.000000000000000e-05
	-4.128916790224967e-05

 4	2.000000000000000e-01
	1.214655012910719e-12
	5.409314477341108e-12
	6.302649284707497e-01
	6.073275064507075e-13
	4.031747319201918e-13
	1.776554494148082e-12
	6.302649284179859e-01
	2.015873659585518e-13
	6.302649304175010e-01
	1.300000000000000e+00
	2.000000000000000e-01
	-5.000000000000000e-05
	-4.633012524755910e-05

 5	2.500000000000000e-01
	1.214655429074594e-12
	5.409316158255245e-12
	6.302651248483728e-01
	6.073277145326450e-13
	4.972736823017732e-13
	2.198632082393846e-12
	6.302651248191137e-01
	2.486368411489822e-13
	6.302651267951279e-01
	1.300000000000000e+00
	2.500000000000000e-01
	-5.000000000000000e-05
	-4.843194010376514e-05

 6	3.000000000000000e-01
	1.214655651244998e-12
	5.409317055616266e-12
	6.302652296851470e-01
	6.073278256178471e-13
	5.914969325993099e-13
	2.620747774682687e-12
	6.302652296684361e-01
	2.957484662973896e-13
	6.302652316319041e-01
	1.300000000000000e+00
	3.000000000000000e-01
	-5.000000000000000e-05
	-4.917773818554079e-05

 7	3.500000000000000e-01
	1.214655768615558e-12
	5.409317529683645e-12
	6.302652850694258e-01
	6.073278843031271e-13
	6.857899419999729e-13
	3.042894867365879e-12
	6.302652850593439e-01
	3.428949709973600e-13
	6.302652870161840e-01
	1.300000000000000e+00
	3.500000000000000e-01
	-5.000000000000000e-05
	-4.948142243038051e-05

 8	4.000000000000000e-01
	1.214655836098794e-12
	5.409317802252844e-12
	6.302653169131026e-01
	6.073279180447450e-13
	7.801162142181173e-13
	3.465058088065239e-12
	6.302653169068324e-01
	3.900581071060710e-13
	6.302653188598615e-01
	1.300000000000000e+00
	4.000000000000000e-01
	-5.000000000000000e-05
	-4.964188084106178e-05

 9	4.500000000000000e-01
	1.214655878257217e-12
	5.409317972533467e-12
	6.302653368066237e-01
	6.073279391239566e-13
	8.744594885429717e-13
	3.887229736983051e-12
	6.302653368027343e-01
	4.372297442681369e-13
	6.302653387533830e-01
	1.300000000000000e+00
	4.500000000000000e-01
	-5.000000000000000e-05
	-4.974742310529517e-05

 10	4.999999999999999e-01
	1.214655906317715e-12
	5.409318085871650e-12
	6.302653500476814e-01
	6.073279531542058e-13
	9.688125164179382e-13
	4.309406252137578e-12
	6.302653500453769e-01
	4.844062582052588e-13
	6.302653519944408e-01
	1.300000000000000e+00
	4.999999999999999e-01
	-5.000000000000000e-05
	-4.982793385815894e-05

 11	5.499999999999999e-01
	1.214655925942597e-12
	5.409318165137823e-12
	6.302653593081791e-01
	6.073279629666464e-13
	1.063171765149515e-12
	4.731585876195637e-12
	6.302653593069830e-01
	5.315858825706858e-13
	6.302653612549386e-01
	1.300000000000000e+00
	5.499999999999999e-01
	-5.000000000000000e-05
	-4.989532252443540e-05

 12	6.000000000000000e-01
	1.214655940246260e-12
	5.409318222911251e-12
	6.302653660577249e-01
	6.073279701184781e-13
	1.157535346576291e-12
	5.153767666380679e-12
	6.302653660573366e-01
	5.787676732837124e-13
	6.302653680044846e-01
	1.300000000000000e+00
	6.000000000000000e-01
	-5.000000000000000e-05
	-4.995503064766411e-05

 13	6.500000000000000e-01
	1.214655951095530e-12
	5.409318266732157e-12
	6.302653711772278e-01
	6.073279755431130e-13
	1.251902168270376e-12
	5.575951076667455e-12
	6.302653711774523e-01
	6.259510841303934e-13
	6.302653731239877e-01
	1.300000000000000e+00
	6.500000000000000e-01
	-5.000000000000000e-05
	-5.000982740814364e-05

 14	7.000000000000001e-01
	1.214655960049248e-12
	5.409318302896806e-12
	6.302653754022661e-01
	6.073279800199720e-13
	1.346271555158937e-12
	5.998135769546852e-12
	6.302653754029964e-01
	6.731357775743128e-13
	6.302653773490261e-01
	1.300000000000000e+00
	7.000000000000001e-01
	-5.000000000000000e-05
	-5.006124727258028e-05

 15	7.500000000000001e-01
	1.214655968112976e-12
	5.409318335466727e-12
	6.302653792073406e-01
	6.073279840518361e-13
	1.440643066413205e-12
	6.420321524608432e-12
	6.302653792085262e-01
	7.203215332010854e-13
	6.302653811541006e-01
	1.300000000000000e+00
	7.500000000000001e-01
	-5.000000000000000e-05
	-5.011020054429197e-05

 16	8.000000000000002e-01
	1.214655976128334e-12
	5.409318367841281e-12
	6.302653829895902e-01
	6.073279880595153e-13
	1.535016400399925e-12
	6.842508191036143e-12
	6.302653829912287e-01
	7.675082001940838e-13
	6.302653849363503e-01
	1.300000000000000e+00
	8.000000000000002e-01
	-5.000000000000000e-05
	-5.015725836878572e-05

 17	8.500000000000002e-01
	1.214655985072601e-12
	5.409318403967752e-12
	6.302653872101686e-01
	6.073279925316484e-13
	1.629391342253168e-12
	7.264695661397101e-12
	6.302653872123124e-01
	8.146956711203439e-13
	6.302653891569289e-01
	1.300000000000000e+00
	8.500000000000002e-01
	-5.000000000000000e-05
	-5.020279631986516e-05

 18	9.000000000000002e-01
	1.214655996155515e-12
	5.409318448732362e-12
	6.302653924399224e-01
	6.073279980731056e-13
	1.723767733422969e-12
	7.686883856416336e-12
	6.302653924426920e-01
	8.618838667048828e-13
	6.302653943866826e-01
	1.300000000000000e+00
	9.000000000000002e-01
	-5.000000000000000e-05
	-5.024707146665636e-05

 19	9.500000000000003e-01
	1.214656010998167e-12
	5.409318508682798e-12
	6.302653994438036e-01
	6.073280054944318e-13
	1.818145453220423e-12
	8.109072715749396e-12
	6.302653994474114e-01
	9.090727266032485e-13
	6.302654013905639e-01
	1.300000000000000e+00
	9.500000000000003e-01
	-5.000000000000000e-05
	-5.029026604857732e-05

 20	1.000000000000000e+00
	1.214656031845510e-12
	5.409318592886562e-12
	6.302654092811490e-01
	6.073280159181030e-13
	1.912524407211364e-12
	8.531262192179200e-12
	6.302654092859343e-01
	9.562622035983573e-13
	6.302654112279097e-01
	1.300000000000000e+00
	1.000000000000000e+00
	-5.000000000000000e-05
	-5.033251339610575e-05

 21	1.050000000000000e+00
	1.214656061812521e-12
	5.409318713925258e-12
	6.302654234218409e-01
	6.073280309016087e-13
	2.006904519683961e-12
	8.953452247849831e-12
	6.302654234283188e-01
	1.003452259834294e-12
	6.302654253686018e-01
	1.300000000000000e+00
	1.050000000000000e+00
	-5.000000000000000e-05
	-5.037391395553798e-05

 22	1.100000000000000e+00
	1.214656105278600e-12
	5.409318889487554e-12
	6.302654439324080e-01
	6.073280526346479e-13
	2.101285728642502e-12
	9.375642851763437e-12
	6.302654439413408e-01
	1.050642864313204e-12
	6.302654458791692e-01
	1.300000000000000e+00
	1.100000000000000e+00
	-5.000000000000000e-05
	-5.041454559170315e-05

 23	1.150000000000000e+00
	1.214656168335738e-12
	5.409319144179393e-12
	6.302654736875101e-01
	6.073280841632172e-13
	2.241601087605695e-12
	9.820800530679195e-12
	6.302654737000043e-01
	1.120800543794263e-12
	6.302654756342718e-01
	1.300000000000000e+00
	1.150000000000000e+00
	-5.000000000000000e-05
	-5.045447046336556e-05

 24	1.200000000000000e+00
	1.214656259478735e-12
	5.409319512311790e-12
	6.302655166956292e-01
	6.073281297347156e-13
	2.595531197306419e-12
	1.037276558496292e-11
	6.302655167132710e-01
	1.297765598643269e-12
	6.302655186423918e-01
	1.300000000000000e+00
	1.200000000000000e+00
	-5.000000000000000e-05
	-5.049373982064032e-05

 25	1.250000000000000e+00
	1.214656390490303e-12
	5.409320041475849e-12
	6.302655785167314e-01
	6.073281952404999e-13
	3.862058080122467e-12
	1.138102902580088e-11
	6.302655785417727e-01
	1.931029040046443e-12
	6.302655804634951e-01
	1.300000000000000e+00
	1.250000000000000e+00
	-5.000000000000000e-05
	-5.053239758704091e-05

 26	1.300000000000000e+00
	1.214656577650408e-12
	5.409320797427303e-12
	6.302656668329167e-01
	6.073282888205523e-13
	8.539562503252500e-12
	1.409478123678304e-11
	6.302656668685289e-01
	4.269781251593546e-12
	6.302656687796823e-01
	1.300000000000000e+00
	1.300000000000000e+00
	-5.000000000000000e-05
	-5.057048337544292e-05

