Title: the widlar current mirror simulation testbench 
Date: Tue Jun 30 15:19:41  2020
Plotname: DC transfer characteristic
Flags: real
No. Variables: 6
No. Points: 51
Variables:
	0	n2	voltage
	1	n1	voltage
	2	n_pos	voltage
	3	v-sweep	voltage
	4	i(v1)	current
	5	i(v2)	current
Values:
 0	0.000000000000000e+00
	6.214379802295881e-01
	5.000000000000000e+00
	0.000000000000000e+00
	-5.000000000000000e-05
	1.307081315981208e-05

 1	1.000000000000000e-01
	6.632679159198842e-01
	5.000000000000000e+00
	1.000000000000000e-01
	-5.000000000000000e-05
	-4.016736863958282e-05

 2	2.000000000000000e-01
	6.659222868098359e-01
	5.000000000000000e+00
	2.000000000000000e-01
	-5.000000000000000e-05
	-4.846485124500209e-05

 3	3.000000000000000e-01
	6.654991611451151e-01
	5.000000000000000e+00
	3.000000000000000e-01
	-5.000000000000000e-05
	-4.883366913038934e-05

 4	4.000000000000000e-01
	6.655062478336217e-01
	5.000000000000000e+00
	4.000000000000000e-01
	-5.000000000000000e-05
	-4.893886030667089e-05

 5	5.000000000000000e-01
	6.655031537686666e-01
	5.000000000000000e+00
	5.000000000000000e-01
	-5.000000000000000e-05
	-4.902766754141182e-05

 6	6.000000000000000e-01
	6.655032220812999e-01
	5.000000000000000e+00
	6.000000000000000e-01
	-5.000000000000000e-05
	-4.911529489005411e-05

 7	7.000000000000000e-01
	6.655032400379437e-01
	5.000000000000000e+00
	7.000000000000000e-01
	-5.000000000000000e-05
	-4.920266861025288e-05

 8	7.999999999999999e-01
	6.655032507375358e-01
	5.000000000000000e+00
	7.999999999999999e-01
	-5.000000000000000e-05
	-4.928999637246931e-05

 9	8.999999999999999e-01
	6.655032603491002e-01
	5.000000000000000e+00
	8.999999999999999e-01
	-5.000000000000000e-05
	-4.937730778941073e-05

 10	9.999999999999999e-01
	6.655032698132528e-01
	5.000000000000000e+00
	9.999999999999999e-01
	-5.000000000000000e-05
	-4.946460725559464e-05

 11	1.100000000000000e+00
	6.655032792563957e-01
	5.000000000000000e+00
	1.100000000000000e+00
	-5.000000000000000e-05
	-4.955189536497060e-05

 12	1.200000000000000e+00
	6.655032886930901e-01
	5.000000000000000e+00
	1.200000000000000e+00
	-5.000000000000000e-05
	-4.963917218887051e-05

 13	1.300000000000000e+00
	6.655032981264205e-01
	5.000000000000000e+00
	1.300000000000000e+00
	-5.000000000000000e-05
	-4.972643774496082e-05

 14	1.400000000000000e+00
	6.655033075573020e-01
	5.000000000000000e+00
	1.400000000000000e+00
	-5.000000000000000e-05
	-4.981369204077022e-05

 15	1.500000000000000e+00
	6.655033169860738e-01
	5.000000000000000e+00
	1.500000000000000e+00
	-5.000000000000000e-05
	-4.990093508114554e-05

 16	1.600000000000000e+00
	6.655033264128849e-01
	5.000000000000000e+00
	1.600000000000000e+00
	-5.000000000000000e-05
	-4.998816686997950e-05

 17	1.700000000000000e+00
	6.655033358378025e-01
	5.000000000000000e+00
	1.700000000000000e+00
	-5.000000000000000e-05
	-5.007538741085949e-05

 18	1.800000000000000e+00
	6.655033452608635e-01
	5.000000000000000e+00
	1.800000000000000e+00
	-5.000000000000000e-05
	-5.016259670715437e-05

 19	1.900000000000001e+00
	6.655033546820852e-01
	5.000000000000000e+00
	1.900000000000001e+00
	-5.000000000000000e-05
	-5.024979476222254e-05

 20	2.000000000000000e+00
	6.655033641014820e-01
	5.000000000000000e+00
	2.000000000000000e+00
	-5.000000000000000e-05
	-5.033698157933570e-05

 21	2.100000000000001e+00
	6.655033735190634e-01
	5.000000000000000e+00
	2.100000000000001e+00
	-5.000000000000000e-05
	-5.042415716176902e-05

 22	2.200000000000001e+00
	6.655033829348329e-01
	5.000000000000000e+00
	2.200000000000001e+00
	-5.000000000000000e-05
	-5.051132151276293e-05

 23	2.300000000000001e+00
	6.655033923487936e-01
	5.000000000000000e+00
	2.300000000000001e+00
	-5.000000000000000e-05
	-5.059847463557180e-05

 24	2.400000000000001e+00
	6.655034017609475e-01
	5.000000000000000e+00
	2.400000000000001e+00
	-5.000000000000000e-05
	-5.068561653344997e-05

 25	2.500000000000001e+00
	6.655034111712982e-01
	5.000000000000000e+00
	2.500000000000001e+00
	-5.000000000000000e-05
	-5.077274720959625e-05

 26	2.600000000000001e+00
	6.655034205798469e-01
	5.000000000000000e+00
	2.600000000000001e+00
	-5.000000000000000e-05
	-5.085986666723031e-05

 27	2.700000000000001e+00
	6.655034299865951e-01
	5.000000000000000e+00
	2.700000000000001e+00
	-5.000000000000000e-05
	-5.094697490963423e-05

 28	2.800000000000001e+00
	6.655034393915437e-01
	5.000000000000000e+00
	2.800000000000001e+00
	-5.000000000000000e-05
	-5.103407193997216e-05

 29	2.900000000000001e+00
	6.655034487946914e-01
	5.000000000000000e+00
	2.900000000000001e+00
	-5.000000000000000e-05
	-5.112115776151925e-05

 30	3.000000000000001e+00
	6.655034581960440e-01
	5.000000000000000e+00
	3.000000000000001e+00
	-5.000000000000000e-05
	-5.120823237747432e-05

 31	3.100000000000001e+00
	6.655034675955963e-01
	5.000000000000000e+00
	3.100000000000001e+00
	-5.000000000000000e-05
	-5.129529579105704e-05

 32	3.200000000000002e+00
	6.655034769933552e-01
	5.000000000000000e+00
	3.200000000000002e+00
	-5.000000000000000e-05
	-5.138234800548009e-05

 33	3.300000000000002e+00
	6.655034863893152e-01
	5.000000000000000e+00
	3.300000000000002e+00
	-5.000000000000000e-05
	-5.146938902392845e-05

 34	3.400000000000002e+00
	6.655034957834826e-01
	5.000000000000000e+00
	3.400000000000002e+00
	-5.000000000000000e-05
	-5.155641884969114e-05

 35	3.500000000000002e+00
	6.655035051758527e-01
	5.000000000000000e+00
	3.500000000000002e+00
	-5.000000000000000e-05
	-5.164343748592535e-05

 36	3.600000000000002e+00
	6.655035145664359e-01
	5.000000000000000e+00
	3.600000000000002e+00
	-5.000000000000000e-05
	-5.173044493585074e-05

 37	3.700000000000002e+00
	6.655035239552231e-01
	5.000000000000000e+00
	3.700000000000002e+00
	-5.000000000000000e-05
	-5.181744120267309e-05

 38	3.800000000000002e+00
	6.655035333422152e-01
	5.000000000000000e+00
	3.800000000000002e+00
	-5.000000000000000e-05
	-5.190442628962589e-05

 39	3.900000000000002e+00
	6.655035427274194e-01
	5.000000000000000e+00
	3.900000000000002e+00
	-5.000000000000000e-05
	-5.199140019990106e-05

 40	4.000000000000002e+00
	6.655035521108312e-01
	5.000000000000000e+00
	4.000000000000002e+00
	-5.000000000000000e-05
	-5.207836293669742e-05

 41	4.100000000000001e+00
	6.655035614924536e-01
	5.000000000000000e+00
	4.100000000000001e+00
	-5.000000000000000e-05
	-5.216531450319992e-05

 42	4.200000000000001e+00
	6.655035708722823e-01
	5.000000000000000e+00
	4.200000000000001e+00
	-5.000000000000000e-05
	-5.225225490264904e-05

 43	4.300000000000001e+00
	6.655035802503254e-01
	5.000000000000000e+00
	4.300000000000001e+00
	-5.000000000000000e-05
	-5.233918413823664e-05

 44	4.400000000000000e+00
	6.655035896265806e-01
	5.000000000000000e+00
	4.400000000000000e+00
	-5.000000000000000e-05
	-5.242610221312689e-05

 45	4.500000000000000e+00
	6.655035990010476e-01
	5.000000000000000e+00
	4.500000000000000e+00
	-5.000000000000000e-05
	-5.251300913056716e-05

 46	4.600000000000000e+00
	6.655036083737259e-01
	5.000000000000000e+00
	4.600000000000000e+00
	-5.000000000000000e-05
	-5.259990489370774e-05

 47	4.699999999999999e+00
	6.655036177446197e-01
	5.000000000000000e+00
	4.699999999999999e+00
	-5.000000000000000e-05
	-5.268678950578213e-05

 48	4.799999999999999e+00
	6.655036271137255e-01
	5.000000000000000e+00
	4.799999999999999e+00
	-5.000000000000000e-05
	-5.277366296998223e-05

 49	4.899999999999999e+00
	6.655036364810480e-01
	5.000000000000000e+00
	4.899999999999999e+00
	-5.000000000000000e-05
	-5.286052528947218e-05

 50	4.999999999999998e+00
	6.655036458465852e-01
	5.000000000000000e+00
	4.999999999999998e+00
	-5.000000000000000e-05
	-5.294737646742998e-05

