Title: simple nmos current mirror
Date: Mon Jun 29 18:01:34  2020
Plotname: DC transfer characteristic
Flags: real
No. Variables: 14
No. Points: 27
Variables:
	0	n2	voltage
	1	m1#body	voltage
	2	m1#dbody	voltage
	3	m1#gate	voltage
	4	m1#sbody	voltage
	5	m2#body	voltage
	6	m2#dbody	voltage
	7	m2#gate	voltage
	8	m2#sbody	voltage
	9	n1	voltage
	10	n_pos	voltage
	11	v-sweep	voltage
	12	i(v1)	current
	13	i(v2)	current
Values:
 0	1.300000000000000e+00
	1.299999999998921e+00
	1.299999999995189e+00
	7.404347050216380e-01
	1.299999999999461e+00
	1.299999999999993e+00
	1.299999999999996e+00
	7.404347050312470e-01
	1.299999999999997e+00
	7.404347050120191e-01
	1.300000000000000e+00
	0.000000000000000e+00
	-5.000000000005000e-05
	2.796729827444252e-12

 1	1.250000000000000e+00
	1.299999999998921e+00
	1.299999999995189e+00
	7.404348959774383e-01
	1.299999999999461e+00
	1.299999999999883e+00
	1.299999999999503e+00
	7.404348959842044e-01
	1.299999999999942e+00
	7.404348959678194e-01
	1.300000000000000e+00
	5.000000000000000e-02
	-4.999999999982796e-05
	-1.869356837356319e-05

 2	1.200000000000000e+00
	1.299999999998921e+00
	1.299999999995189e+00
	7.404348944124567e-01
	1.299999999999461e+00
	1.299999999999787e+00
	1.299999999999070e+00
	7.404348944171298e-01
	1.299999999999894e+00
	7.404348944028379e-01
	1.300000000000000e+00
	1.000000000000000e-01
	-4.999999999982796e-05
	-3.254669080612364e-05

 3	1.150000000000000e+00
	1.299999999998921e+00
	1.299999999995189e+00
	7.404348932747936e-01
	1.299999999999461e+00
	1.299999999999693e+00
	1.299999999998647e+00
	7.404348932779454e-01
	1.299999999999847e+00
	7.404348932651749e-01
	1.300000000000000e+00
	1.500000000000000e-01
	-5.000000000010552e-05
	-4.170151190299012e-05

 4	1.100000000000000e+00
	1.299999999998921e+00
	1.299999999995189e+00
	7.404348924607165e-01
	1.299999999999461e+00
	1.299999999999599e+00
	1.299999999998225e+00
	7.404348924627792e-01
	1.299999999999800e+00
	7.404348924510975e-01
	1.300000000000000e+00
	2.000000000000000e-01
	-4.999999999982796e-05
	-4.663802614397423e-05

 5	1.050000000000000e+00
	1.299999999998921e+00
	1.299999999995189e+00
	7.404348918892802e-01
	1.299999999999461e+00
	1.299999999999505e+00
	1.299999999997802e+00
	7.404348918905787e-01
	1.299999999999753e+00
	7.404348918796614e-01
	1.300000000000000e+00
	2.500000000000000e-01
	-4.999999999966143e-05
	-4.862943644662758e-05

 6	1.000000000000000e+00
	1.299999999998921e+00
	1.299999999995189e+00
	7.404348914980345e-01
	1.299999999999461e+00
	1.299999999999411e+00
	1.299999999997381e+00
	7.404348914988100e-01
	1.299999999999705e+00
	7.404348914884158e-01
	1.300000000000000e+00
	3.000000000000000e-01
	-4.999999999993898e-05
	-4.931588013253354e-05

 7	9.500000000000001e-01
	1.299999999998921e+00
	1.299999999995189e+00
	7.404348912393687e-01
	1.299999999999461e+00
	1.299999999999316e+00
	1.299999999996958e+00
	7.404348912397983e-01
	1.299999999999658e+00
	7.404348912297499e-01
	1.300000000000000e+00
	3.500000000000000e-01
	-4.999999999999449e-05
	-4.959340702489961e-05

 8	9.000000000000001e-01
	1.299999999998921e+00
	1.299999999995189e+00
	7.404348910763765e-01
	1.299999999999461e+00
	1.299999999999222e+00
	1.299999999996536e+00
	7.404348910765882e-01
	1.299999999999611e+00
	7.404348910667576e-01
	1.300000000000000e+00
	4.000000000000000e-01
	-4.999999999993898e-05
	-4.974214446042814e-05

 9	8.500000000000001e-01
	1.299999999998921e+00
	1.299999999995189e+00
	7.404348909818803e-01
	1.299999999999461e+00
	1.299999999999128e+00
	1.299999999996114e+00
	7.404348909819654e-01
	1.299999999999564e+00
	7.404348909722615e-01
	1.300000000000000e+00
	4.500000000000000e-01
	-4.999999999993898e-05
	-4.984244016307083e-05

 10	8.000000000000000e-01
	1.299999999998921e+00
	1.299999999995189e+00
	7.404348909343172e-01
	1.299999999999461e+00
	1.299999999999033e+00
	1.299999999995692e+00
	7.404348909343389e-01
	1.299999999999517e+00
	7.404348909246985e-01
	1.300000000000000e+00
	4.999999999999999e-01
	-4.999999999999449e-05
	-4.992091766476221e-05

 11	7.500000000000001e-01
	1.299999999998921e+00
	1.299999999995189e+00
	7.404348909189042e-01
	1.299999999999461e+00
	1.299999999998939e+00
	1.299999999995269e+00
	7.404348909189050e-01
	1.299999999999470e+00
	7.404348909092854e-01
	1.300000000000000e+00
	5.499999999999999e-01
	-5.000000000005000e-05
	-4.998801361443015e-05

 12	7.000000000000001e-01
	1.299999999998921e+00
	1.299999999995189e+00
	7.404348909112521e-01
	1.299999999999461e+00
	1.299999999998845e+00
	1.299999999994847e+00
	7.404348909112427e-01
	1.299999999999423e+00
	7.404348909016333e-01
	1.300000000000000e+00
	6.000000000000000e-01
	-4.999999999993898e-05
	-5.004843551631960e-05

 13	6.500000000000000e-01
	1.299999999998921e+00
	1.299999999995189e+00
	7.404348908776400e-01
	1.299999999999461e+00
	1.299999999998750e+00
	1.299999999994425e+00
	7.404348908775856e-01
	1.299999999999375e+00
	7.404348908680212e-01
	1.300000000000000e+00
	6.500000000000000e-01
	-4.999999999988347e-05
	-5.010455613137232e-05

 14	6.000000000000000e-01
	1.299999999998921e+00
	1.299999999995189e+00
	7.404348908030984e-01
	1.299999999999461e+00
	1.299999999998656e+00
	1.299999999994003e+00
	7.404348908029446e-01
	1.299999999999328e+00
	7.404348907934796e-01
	1.300000000000000e+00
	7.000000000000001e-01
	-4.999999999982796e-05
	-5.015768175970873e-05

 15	5.499999999999999e-01
	1.299999999998921e+00
	1.299999999995189e+00
	7.404348906691476e-01
	1.299999999999461e+00
	1.299999999998561e+00
	1.299999999993581e+00
	7.404348906688145e-01
	1.299999999999281e+00
	7.404348906595287e-01
	1.300000000000000e+00
	7.500000000000001e-01
	-5.000000000005000e-05
	-5.020858478134827e-05

 16	4.999999999999999e-01
	1.299999999998921e+00
	1.299999999995189e+00
	7.404348904508409e-01
	1.299999999999461e+00
	1.299999999998467e+00
	1.299999999993158e+00
	7.404348904502159e-01
	1.299999999999234e+00
	7.404348904412219e-01
	1.300000000000000e+00
	8.000000000000002e-01
	-4.999999999988347e-05
	-5.025774957118208e-05

 17	4.499999999999998e-01
	1.299999999998921e+00
	1.299999999995189e+00
	7.404348901154871e-01
	1.299999999999461e+00
	1.299999999998373e+00
	1.299999999992736e+00
	7.404348901144137e-01
	1.299999999999186e+00
	7.404348901058683e-01
	1.300000000000000e+00
	8.500000000000002e-01
	-4.999999999988347e-05
	-5.030549529405779e-05

 18	3.999999999999998e-01
	1.299999999998921e+00
	1.299999999995189e+00
	7.404348896195394e-01
	1.299999999999461e+00
	1.299999999998279e+00
	1.299999999992314e+00
	7.404348896178026e-01
	1.299999999999139e+00
	7.404348896099205e-01
	1.300000000000000e+00
	9.000000000000002e-01
	-4.999999999982796e-05
	-5.035204134773305e-05

 19	3.499999999999998e-01
	1.299999999998921e+00
	1.299999999995189e+00
	7.404348889067847e-01
	1.299999999999461e+00
	1.299999999998184e+00
	1.299999999991892e+00
	7.404348889040945e-01
	1.299999999999092e+00
	7.404348888971658e-01
	1.300000000000000e+00
	9.500000000000003e-01
	-4.999999999993898e-05
	-5.039754422262122e-05

 20	2.999999999999998e-01
	1.299999999998921e+00
	1.299999999995189e+00
	7.404348879038254e-01
	1.299999999999461e+00
	1.299999999998089e+00
	1.299999999991470e+00
	7.404348878997941e-01
	1.299999999999045e+00
	7.404348878942065e-01
	1.300000000000000e+00
	1.000000000000000e+00
	-4.999999999971694e-05
	-5.044211929623743e-05

 21	2.499999999999998e-01
	1.299999999998921e+00
	1.299999999995189e+00
	7.404348865163553e-01
	1.299999999999461e+00
	1.299999999997995e+00
	1.299999999991047e+00
	7.404348865104683e-01
	1.299999999998998e+00
	7.404348865067364e-01
	1.300000000000000e+00
	1.050000000000000e+00
	-5.000000000010552e-05
	-5.048585431516248e-05

 22	1.999999999999997e-01
	1.299999999998921e+00
	1.299999999995189e+00
	7.404348846232094e-01
	1.299999999999461e+00
	1.299999999997901e+00
	1.299999999990626e+00
	7.404348846147906e-01
	1.299999999998950e+00
	7.404348846135905e-01
	1.300000000000000e+00
	1.100000000000000e+00
	-4.999999999988347e-05
	-5.052881812732256e-05

 23	1.499999999999997e-01
	1.299999999998921e+00
	1.299999999995189e+00
	7.404348820687731e-01
	1.299999999999461e+00
	1.299999999997756e+00
	1.299999999990178e+00
	7.404348820569380e-01
	1.299999999998878e+00
	7.404348820591542e-01
	1.300000000000000e+00
	1.150000000000000e+00
	-5.000000000010552e-05
	-5.057106664334822e-05

 24	9.999999999999964e-02
	1.299999999998921e+00
	1.299999999995189e+00
	7.404348786553496e-01
	1.299999999999461e+00
	1.299999999997387e+00
	1.299999999989618e+00
	7.404348786389496e-01
	1.299999999998694e+00
	7.404348786457308e-01
	1.300000000000000e+00
	1.200000000000000e+00
	-4.999999999988347e-05
	-5.061264714344813e-05

 25	4.999999999999960e-02
	1.299999999998921e+00
	1.299999999995189e+00
	7.404348741315033e-01
	1.299999999999461e+00
	1.299999999996055e+00
	1.299999999988577e+00
	7.404348741090535e-01
	1.299999999998027e+00
	7.404348741218845e-01
	1.300000000000000e+00
	1.250000000000000e+00
	-4.999999999988347e-05
	-5.065360167533182e-05

 26	-4.440892098500626e-16
	1.299999999998921e+00
	1.299999999995189e+00
	7.404348681791169e-01
	1.299999999999461e+00
	1.299999999991144e+00
	1.299999999985747e+00
	7.404348681487063e-01
	1.299999999995572e+00
	7.404348681694980e-01
	1.300000000000000e+00
	1.300000000000000e+00
	-4.999999999977245e-05
	-5.069397006505430e-05

