Title: dc tb
Date: Sun May 21 17:48:52  2023
Plotname: DC transfer characteristic
Flags: real
No. Variables: 29
No. Points: 27
Variables:
	0	n2	voltage
	1	m1#body	voltage
	2	m1#dbody	voltage
	3	m1#gate	voltage
	4	m1#sbody	voltage
	5	m2#body	voltage
	6	m2#dbody	voltage
	7	m2#gate	voltage
	8	m2#sbody	voltage
	9	m3#body	voltage
	10	m3#dbody	voltage
	11	m3#gate	voltage
	12	m3#sbody	voltage
	13	m4#body	voltage
	14	m4#dbody	voltage
	15	m4#gate	voltage
	16	m4#sbody	voltage
	17	m5#body	voltage
	18	m5#dbody	voltage
	19	m5#gate	voltage
	20	m5#sbody	voltage
	21	n1	voltage
	22	n3	voltage
	23	n4	voltage
	24	n5	voltage
	25	v-sweep	voltage
	26	i(v1)	current
	27	i(v2)	current
	28	vp	voltage
Values:
 0	0.000000000000000e+00
	5.242853063729271e-13
	2.335796382731491e-12
	5.210602819520223e-01
	2.621426531843302e-13
	4.816917716552487e-15
	2.419368692568055e-15
	5.210602812296360e-01
	2.408458858256645e-15
	2.995729960258807e-14
	1.497864980113826e-14
	7.399332186647305e-01
	1.498685230780932e-14
	1.513541718638976e-12
	4.739723036568942e-12
	7.399332427570865e-01
	2.763676826485499e-12
	1.540047728674080e-12
	6.394523186365957e-12
	7.399332407295479e-01
	7.700238643311664e-13
	5.210602911190688e-01
	2.664874995660021e-01
	1.049052414696706e-06
	7.399332440684870e-01
	0.000000000000000e+00
	-9.999999999999999e-05
	1.031001018327970e-08
	1.300000000000000e+00

 1	5.000000000000000e-02
	5.242964561006245e-13
	2.335846206953039e-12
	5.210606600081181e-01
	2.621482280481789e-13
	1.066943431965653e-13
	4.608039044907021e-13
	5.210606595001659e-01
	5.334717159784852e-14
	2.090794965470414e-13
	5.436881417515891e-13
	7.399408862624171e-01
	4.565129699464321e-13
	1.513553080045151e-12
	4.739731552693074e-12
	7.399409018628955e-01
	2.763726756035939e-12
	1.540084511558240e-12
	6.394599021101804e-12
	7.399408998351820e-01
	7.700422557732464e-13
	5.210606691752083e-01
	2.664933994039145e-01
	4.601542794284916e-02
	7.399409031743341e-01
	5.000000000000000e-02
	-9.999999999999999e-05
	-2.444474731926684e-05
	1.300000000000000e+00

 2	1.000000000000000e-01
	5.243041478371784e-13
	2.335880523603536e-12
	5.210610447736865e-01
	2.621520739164558e-13
	1.957968604720760e-13
	8.615199141005972e-13
	5.210610444758077e-01
	9.789843023524132e-14
	3.848283076082073e-13
	1.015844054565052e-12
	7.399462453833666e-01
	8.911821748721150e-13
	1.513561167025855e-12
	4.739738481925524e-12
	7.399462550485362e-01
	2.763761269957152e-12
	1.540110222568845e-12
	6.394652025499560e-12
	7.399462530207015e-01
	7.700551112785486e-13
	5.210610539408218e-01
	2.664974621222453e-01
	9.210032341139140e-02
	7.399462563600027e-01
	1.000000000000000e-01
	-9.999999999999999e-05
	-3.961145534710241e-05
	1.300000000000000e+00

 3	1.500000000000000e-01
	5.243093783830871e-13
	2.335903852312711e-12
	5.210613229784269e-01
	2.621546891894101e-13
	2.821963021308393e-13
	1.249751616071273e-12
	5.210613228317025e-01
	1.410981510642714e-13
	5.621926258610572e-13
	1.480869136658218e-12
	7.399498989887816e-01
	1.323322936242844e-12
	1.513566699629065e-12
	4.739743334762926e-12
	7.399499046074893e-01
	2.763784749456164e-12
	1.540127752321201e-12
	6.394688162067989e-12
	7.399499025795725e-01
	7.700638761547265e-13
	5.210613321455949e-01
	2.665002238779682e-01
	1.378688754383487e-01
	7.399499059189750e-01
	1.500000000000000e-01
	-9.999999999999999e-05
	-4.670649465421785e-05
	1.300000000000000e+00

 4	2.000000000000000e-01
	5.243128176146478e-13
	2.335919205839407e-12
	5.210614738166038e-01
	2.621564088051905e-13
	3.650212076537502e-13
	1.621525272406655e-12
	5.210614737531799e-01
	1.825106038253898e-13
	7.376197365624702e-13
	1.943776996467967e-12
	7.399522833270982e-01
	1.741133356608468e-12
	1.513570272956657e-12
	4.739746252713179e-12
	7.399522863050753e-01
	2.763800169873697e-12
	1.540139192668749e-12
	6.394711744973722e-12
	7.399522842771044e-01
	7.700695963285004e-13
	5.210614829837893e-01
	2.665020417092124e-01
	1.818774346990600e-01
	7.399522876165732e-01
	2.000000000000000e-01
	-9.999999999999999e-05
	-4.899527089267518e-05
	1.300000000000000e+00

 5	2.500000000000000e-01
	5.243149297203593e-13
	2.335928645882844e-12
	5.210615414086790e-01
	2.621574648580462e-13
	4.381754392278602e-13
	1.949667059549100e-12
	5.210615413838581e-01
	2.190877196121471e-13
	9.040634692420587e-13
	2.402026975862463e-12
	7.399537335460900e-01
	2.115873964426953e-12
	1.513572417069683e-12
	4.739747831710316e-12
	7.399537349179016e-01
	2.763809625824144e-12
	1.540146151174176e-12
	6.394726088822671e-12
	7.399537328898976e-01
	7.700730755812143e-13
	5.210615505758723e-01
	2.665031595601458e-01
	2.207458433913907e-01
	7.399537362294067e-01
	2.500000000000000e-01
	-9.999999999999999e-05
	-4.966250432224527e-05
	1.300000000000000e+00

 6	3.000000000000000e-01
	5.243160726112951e-13
	2.335933757352445e-12
	5.210615704909111e-01
	2.621580363035141e-13
	4.919665691659754e-13
	2.190883802992115e-12
	5.210615704832225e-01
	2.459832845809859e-13
	1.051791075643402e-12
	2.850894846203007e-12
	7.399545140727471e-01
	2.404050399540583e-12
	1.513573562216261e-12
	4.739748622400371e-12
	7.399545145800952e-01
	2.763814738369231e-12
	1.540149896403127e-12
	6.394733808903618e-12
	7.399545125520732e-01
	7.700749481956897e-13
	5.210615796581078e-01
	2.665037648888574e-01
	2.493207201807378e-01
	7.399545158916041e-01
	3.000000000000000e-01
	-9.999999999999999e-05
	-4.988853829359551e-05
	1.300000000000000e+00

 7	3.500000000000000e-01
	5.243165273512568e-13
	2.335935791959701e-12
	5.210615802000305e-01
	2.621582636734950e-13
	5.160250427043470e-13
	2.298759083241267e-12
	5.210615801982246e-01
	2.580125213500738e-13
	1.171161548521500e-12
	3.285580670624822e-12
	7.399548235891301e-01
	2.559579976198799e-12
	1.513574014109635e-12
	4.739748921165459e-12
	7.399548237536751e-01
	2.763816771532361e-12
	1.540151381566356e-12
	6.394736870287088e-12
	7.399548217256460e-01
	7.700756907773041e-13
	5.210615893672281e-01
	2.665040058507069e-01
	2.620999374939061e-01
	7.399548250651854e-01
	3.500000000000000e-01
	-9.999999999999999e-05
	-4.995885542846196e-05
	1.300000000000000e+00

 8	4.000000000000000e-01
	5.243166574606954e-13
	2.335936374489333e-12
	5.210615820966065e-01
	2.621583287282143e-13
	5.216884895876773e-13
	2.324152447755498e-12
	5.210615820960420e-01
	2.608442447917158e-13
	1.273891380658706e-12
	3.711945671283682e-12
	7.399549116528389e-01
	2.633506252015249e-12
	1.513574141632637e-12
	4.739748999151282e-12
	7.399549117198509e-01
	2.763817352762810e-12
	1.540151804126655e-12
	6.394737741313560e-12
	7.399549096918198e-01
	7.700759020574536e-13
	5.210615912638044e-01
	2.665040748464684e-01
	2.651081141621486e-01
	7.399549130313617e-01
	4.000000000000000e-01
	-9.999999999999999e-05
	-4.997325962947306e-05
	1.300000000000000e+00

 9	4.500000000000000e-01
	5.243167089165656e-13
	2.335936605008716e-12
	5.210615825318855e-01
	2.621583544561494e-13
	5.231846835535556e-13
	2.330861007702525e-12
	5.210615825316541e-01
	2.615923417746490e-13
	1.373160616296826e-12
	4.136580300858109e-12
	7.399549463039069e-01
	2.689101254933747e-12
	1.513574191432755e-12
	4.739749027315935e-12
	7.399549463325453e-01
	2.763817582451957e-12
	1.540151970394588e-12
	6.394738084042734e-12
	7.399549443045134e-01
	7.700759851914199e-13
	5.210615916990834e-01
	2.665041021516412e-01
	2.659028308934979e-01
	7.399549476440562e-01
	4.500000000000000e-01
	-9.999999999999999e-05
	-4.997714081907281e-05
	1.300000000000000e+00

 10	4.999999999999999e-01
	5.243167385600858e-13
	2.335936737824125e-12
	5.210615827508438e-01
	2.621583692779095e-13
	5.240578407724925e-13
	2.334775919600796e-12
	5.210615827507887e-01
	2.620289203841138e-13
	1.472016220619676e-12
	4.561008104236560e-12
	7.399549662481436e-01
	2.742007357446304e-12
	1.513574220058468e-12
	4.739749043270978e-12
	7.399549662546899e-01
	2.763817714757101e-12
	1.540152066094152e-12
	6.394738281308602e-12
	7.399549642266576e-01
	7.700760330412023e-13
	5.210615919180418e-01
	2.665041178839239e-01
	2.663666037316105e-01
	7.399549675662009e-01
	4.999999999999999e-01
	-9.999999999999999e-05
	-4.997915014778913e-05
	1.300000000000000e+00

 11	5.499999999999999e-01
	5.243167571165512e-13
	2.335936820954016e-12
	5.210615829123755e-01
	2.621583785561422e-13
	5.246309527123463e-13
	2.337345579079468e-12
	5.210615829124426e-01
	2.623154763540384e-13
	1.570647434311976e-12
	4.985323710774965e-12
	7.399549787467834e-01
	2.793606041638347e-12
	1.513574238026990e-12
	4.739749053466727e-12
	7.399549787394887e-01
	2.763817797592170e-12
	1.540152126067068e-12
	6.394738404931051e-12
	7.399549767114560e-01
	7.700760630276601e-13
	5.210615920795735e-01
	2.665041277306842e-01
	2.666710136137623e-01
	7.399549800509997e-01
	5.499999999999999e-01
	-9.999999999999999e-05
	-4.998056186071115e-05
	1.300000000000000e+00

 12	6.000000000000000e-01
	5.243167696127012e-13
	2.335936876917208e-12
	5.210615830605497e-01
	2.621583848042172e-13
	5.251113415024580e-13
	2.339499494847223e-12
	5.210615830607191e-01
	2.625556707490923e-13
	1.669221901963343e-12
	5.409610944072286e-12
	7.399549871856426e-01
	2.844806975064218e-12
	1.513574250206418e-12
	4.739749060667748e-12
	7.399549871690032e-01
	2.763817853396428e-12
	1.540152166559722e-12
	6.394738488398738e-12
	7.399549851409706e-01
	7.700760832739870e-13
	5.210615922277477e-01
	2.665041343592807e-01
	2.669261732020961e-01
	7.399549884805144e-01
	6.000000000000000e-01
	-9.999999999999999e-05
	-4.998174151043779e-05
	1.300000000000000e+00

 13	6.500000000000000e-01
	5.243167784670494e-13
	2.335936916553419e-12
	5.210615832047748e-01
	2.621583892313913e-13
	5.255450275631502e-13
	2.341444008626675e-12
	5.210615832050363e-01
	2.627725137794367e-13
	1.767769214481813e-12
	5.833884599771239e-12
	7.399549931871433e-01
	2.895808282569333e-12
	1.513574258915225e-12
	4.739749066103839e-12
	7.399549931638604e-01
	2.763817892959462e-12
	1.540152195357071e-12
	6.394738547758840e-12
	7.399549911358275e-01
	7.700760976726616e-13
	5.210615923719728e-01
	2.665041390537581e-01
	2.671565263805479e-01
	7.399549944753715e-01
	6.500000000000000e-01
	-9.999999999999999e-05
	-4.998280300014333e-05
	1.300000000000000e+00

 14	7.000000000000001e-01
	5.243167851133486e-13
	2.335936946290220e-12
	5.210615833471567e-01
	2.621583925545408e-13
	5.259515707013043e-13
	2.343266820640273e-12
	5.210615833475043e-01
	2.629757853485121e-13
	1.866301178050473e-12
	6.258150580990670e-12
	7.399549977111670e-01
	2.946693786670543e-12
	1.513574265520876e-12
	4.739749070474529e-12
	7.399549976828700e-01
	2.763817922675634e-12
	1.540152217064928e-12
	6.394738592505341e-12
	7.399549956548368e-01
	7.700761085265903e-13
	5.210615925143547e-01
	2.665041425755327e-01
	2.673724623911133e-01
	7.399549989943811e-01
	7.000000000000001e-01
	-9.999999999999999e-05
	-4.998379464374536e-05
	1.300000000000000e+00

 15	7.500000000000001e-01
	5.243167904987636e-13
	2.335936970374681e-12
	5.210615834871036e-01
	2.621583952472484e-13
	5.263404608775244e-13
	2.345010481102861e-12
	5.210615834875334e-01
	2.631702304366205e-13
	1.964823166129292e-12
	6.682411574464510e-12
	7.399550013907503e-01
	2.997503978884542e-12
	1.513574270922771e-12
	4.739749074225078e-12
	7.399550013583778e-01
	2.763817946768088e-12
	1.540152234720878e-12
	6.394738628899625e-12
	7.399549993303446e-01
	7.700761173545654e-13
	5.210615926543016e-01
	2.665041454277294e-01
	2.675790218646483e-01
	7.399550026698889e-01
	7.500000000000001e-01
	-9.999999999999999e-05
	-4.998474020400447e-05
	1.300000000000000e+00

 16	8.000000000000002e-01
	5.243167959628417e-13
	2.335936994814575e-12
	5.210615836208905e-01
	2.621583979792874e-13
	5.267168996321453e-13
	2.346698312215716e-12
	5.210615836213996e-01
	2.633584498139294e-13
	2.063337999285518e-12
	7.106668990476958e-12
	7.399550051194312e-01
	3.048260990679222e-12
	1.513574276387066e-12
	4.739749077960628e-12
	7.399550050829280e-01
	2.763817971207841e-12
	1.540152252612413e-12
	6.394738665779519e-12
	7.399550030548948e-01
	7.700761263003326e-13
	5.210615927880886e-01
	2.665041483220727e-01
	2.677789676216578e-01
	7.399550063944392e-01
	8.000000000000002e-01
	-9.999999999999999e-05
	-4.998565286316972e-05
	1.300000000000000e+00

 17	8.500000000000002e-01
	5.243168025212698e-13
	2.335937024165087e-12
	5.210615837459288e-01
	2.621584012585015e-13
	5.270839839360834e-13
	2.348344199907271e-12
	5.210615837465152e-01
	2.635419919658970e-13
	2.161847303444802e-12
	7.530923641990921e-12
	7.399550095749785e-01
	3.098977972312442e-12
	1.513574282874304e-12
	4.739749082142036e-12
	7.399550095335445e-01
	2.763818000522457e-12
	1.540152273991736e-12
	6.394738709848803e-12
	7.399550075055111e-01
	7.700761369899940e-13
	5.210615929131269e-01
	2.665041517982007e-01
	2.679739446323776e-01
	7.399550108450557e-01
	8.500000000000002e-01
	-9.999999999999999e-05
	-4.998654052093088e-05
	1.300000000000000e+00

 18	9.000000000000002e-01
	5.243168110673319e-13
	2.335937062433174e-12
	5.210615838582924e-01
	2.621584055315325e-13
	5.274436804707605e-13
	2.349956962219589e-12
	5.210615838589543e-01
	2.637218402332341e-13
	2.260352087859352e-12
	7.955176033632514e-12
	7.399550153524677e-01
	3.149663263016863e-12
	1.513574291225930e-12
	4.739749087160575e-12
	7.399550153046321e-01
	2.763818038692935e-12
	1.540152301714179e-12
	6.394738766993183e-12
	7.399550132765986e-01
	7.700761508512156e-13
	5.210615930254905e-01
	2.665041563308162e-01
	2.681649975094546e-01
	7.399550166161434e-01
	9.000000000000002e-01
	-9.999999999999999e-05
	-4.998740825123087e-05
	1.300000000000000e+00

 19	9.500000000000003e-01
	5.243168229468155e-13
	2.335937115655259e-12
	5.210615839527659e-01
	2.621584114712743e-13
	5.277973049462080e-13
	2.351542498430200e-12
	5.210615839535018e-01
	2.638986524709564e-13
	2.358853018264956e-12
	8.379426498269635e-12
	7.399550233488459e-01
	3.200322437018724e-12
	1.513574302711057e-12
	4.739749093611690e-12
	7.399550232921522e-01
	2.763818091717296e-12
	1.540152340083649e-12
	6.394738846084319e-12
	7.399550212641186e-01
	7.700761700359505e-13
	5.210615931199640e-01
	2.665041626350469e-01
	2.683528250996120e-01
	7.399550246036635e-01
	9.500000000000003e-01
	-9.999999999999999e-05
	-4.998825957776298e-05
	1.300000000000000e+00

 20	1.000000000000000e+00
	5.243168401188421e-13
	2.335937192618937e-12
	5.210615840214969e-01
	2.621584200572876e-13
	5.281457762737951e-13
	2.353104928688695e-12
	5.210615840223055e-01
	2.640728881347485e-13
	2.457350556669318e-12
	8.803675266906134e-12
	7.399550348696912e-01
	3.250959385970304e-12
	1.513574319176660e-12
	4.739749102359974e-12
	7.399550348002401e-01
	2.763818168326973e-12
	1.540152395364801e-12
	6.394738960035554e-12
	7.399550327722062e-01
	7.700761976765267e-13
	5.210615931886950e-01
	2.665041717519508e-01
	2.685379154885579e-01
	7.399550361117514e-01
	1.000000000000000e+00
	-9.999999999999999e-05
	-4.998909713568422e-05
	1.300000000000000e+00

 21	1.050000000000000e+00
	5.243168654122807e-13
	2.335937306013651e-12
	5.210615840517422e-01
	2.621584327040069e-13
	5.284897602260564e-13
	2.354647238146184e-12
	5.210615840526226e-01
	2.642448801108778e-13
	2.555845038060884e-12
	9.227922507036234e-12
	7.399550517994307e-01
	3.301576929597135e-12
	1.513574343286853e-12
	4.739749114641910e-12
	7.399550517112276e-01
	2.763818281128904e-12
	1.540152476599757e-12
	6.394739127485438e-12
	7.399550496831931e-01
	7.700762382940047e-13
	5.210615932189404e-01
	2.665041851848429e-01
	2.687206223065813e-01
	7.399550530227389e-01
	1.050000000000000e+00
	-9.999999999999999e-05
	-4.998992306950306e-05
	1.300000000000000e+00

 22	1.100000000000000e+00
	5.243169029266304e-13
	2.335937474228029e-12
	5.210615840261406e-01
	2.621584514611818e-13
	5.288297551034425e-13
	2.356171661059721e-12
	5.210615840270917e-01
	2.644148775495694e-13
	2.654336715060814e-12
	9.652168344970519e-12
	7.399550768694528e-01
	3.352177179291020e-12
	1.513574378904588e-12
	4.739749132258766e-12
	7.399550767534878e-01
	2.763818448393252e-12
	1.540152596894774e-12
	6.394739375449900e-12
	7.399550747254530e-01
	7.700762984415131e-13
	5.210615931933387e-01
	2.665042051122118e-01
	2.689012102307571e-01
	7.399550780649994e-01
	1.100000000000000e+00
	-9.999999999999999e-05
	-4.999073930414761e-05
	1.300000000000000e+00

 23	1.150000000000000e+00
	5.243169584822420e-13
	2.335937723370645e-12
	5.210615839179215e-01
	2.621584792389876e-13
	5.291661452034210e-13
	2.357679920534124e-12
	5.210615839189424e-01
	2.645830725995573e-13
	2.752825785206010e-12
	1.007641287947744e-11
	7.399551139566204e-01
	3.402761764756313e-12
	1.513574431510132e-12
	4.739749157749893e-12
	7.399551137995807e-01
	2.763818696058283e-12
	1.540152774852439e-12
	6.394739742274428e-12
	7.399551117715449e-01
	7.700763874203455e-13
	5.210615930851196e-01
	2.665042346271376e-01
	2.690798833855401e-01
	7.399551151110924e-01
	1.150000000000000e+00
	-9.999999999999999e-05
	-4.999154775500058e-05
	1.300000000000000e+00

 24	1.200000000000000e+00
	5.243170403404227e-13
	2.335938090498709e-12
	5.210615836910362e-01
	2.621585201680779e-13
	5.294992358678680e-13
	2.359173385664063e-12
	5.210615836921262e-01
	2.647496179317795e-13
	2.851312408565018e-12
	1.050065619059126e-11
	7.399551685647134e-01
	3.453331982434626e-12
	1.513574508885983e-12
	4.739749194736179e-12
	7.399551683471915e-01
	2.763819060941422e-12
	1.540153036881999e-12
	6.394740282396292e-12
	7.399551663191546e-01
	7.700765184351254e-13
	5.210615928582343e-01
	2.665042781197710e-01
	2.692568039583057e-01
	7.399551696587036e-01
	1.200000000000000e+00
	-9.999999999999999e-05
	-4.999235052444492e-05
	1.300000000000000e+00

 25	1.250000000000000e+00
	5.243171601242325e-13
	2.335938627749610e-12
	5.210615832934352e-01
	2.621585800599828e-13
	5.298292775013930e-13
	2.360653179228056e-12
	5.210615832945933e-01
	2.649146387485406e-13
	3.048626387150444e-12
	1.097431317931792e-11
	7.399552484364276e-01
	3.553303730894387e-12
	1.513574621978880e-12
	4.739749248300619e-12
	7.399552481304408e-01
	2.763819594841363e-12
	1.540153420135966e-12
	6.394741072397646e-12
	7.399552461024019e-01
	7.700767100621093e-13
	5.210615924606331e-01
	2.665043417668128e-01
	2.694321049571605e-01
	7.399552494419531e-01
	1.250000000000000e+00
	-9.999999999999999e-05
	-4.999315013363216e-05
	1.300000000000000e+00

 26	1.300000000000000e+00
	5.243173341018586e-13
	2.335939408097060e-12
	5.210615826528617e-01
	2.621586670487958e-13
	5.301564830017913e-13
	2.362120255843221e-12
	5.210615826540872e-01
	2.650782414987384e-13
	4.032824455276945e-12
	1.184141221281217e-11
	7.399553644090834e-01
	4.046706225446718e-12
	1.513574786111588e-12
	4.739749325562671e-12
	7.399553639746562e-01
	2.763820370258361e-12
	1.540153976616346e-12
	6.394742219469455e-12
	7.399553619466147e-01
	7.700769883022993e-13
	5.210615918200596e-01
	2.665044342134337e-01
	2.696058994694263e-01
	7.399553652861690e-01
	1.300000000000000e+00
	-9.999999999999999e-05
	-4.999394989778485e-05
	1.300000000000000e+00

