Title: dc tb
Date: Mon Aug  1 12:38:05  2022
Plotname: DC transfer characteristic
Flags: real
No. Variables: 29
No. Points: 27
Variables:
	0	n2	voltage
	1	m1#body	voltage
	2	m1#dbody	voltage
	3	m1#gate	voltage
	4	m1#sbody	voltage
	5	m2#body	voltage
	6	m2#dbody	voltage
	7	m2#gate	voltage
	8	m2#sbody	voltage
	9	m3#body	voltage
	10	m3#dbody	voltage
	11	m3#gate	voltage
	12	m3#sbody	voltage
	13	m4#body	voltage
	14	m4#dbody	voltage
	15	m4#gate	voltage
	16	m4#sbody	voltage
	17	m5#body	voltage
	18	m5#dbody	voltage
	19	m5#gate	voltage
	20	m5#sbody	voltage
	21	n1	voltage
	22	n3	voltage
	23	n4	voltage
	24	n5	voltage
	25	v-sweep	voltage
	26	i(v1)	current
	27	i(v2)	current
	28	vp	voltage
Values:
 0	0.000000000000000e+00
	1.001879660192014e-12
	4.477271497944692e-12
	5.201775475075563e-01
	5.009398300919304e-13
	4.730557197379104e-15
	2.396616567997726e-15
	5.201775467593059e-01
	2.365278598670303e-15
	2.155531592103005e-11
	1.077765796040294e-11
	1.054808702586970e+00
	1.077768152194574e-11
	2.229776982774871e-12
	6.098497278778550e-12
	1.054808971446815e+00
	5.024470159455159e-12
	3.466033597803872e-11
	2.531623528665913e-11
	1.054808970634965e+00
	1.733016798888861e-11
	5.201775565313312e-01
	1.054808974641165e+00
	3.013384028028425e-06
	6.544811726550712e-01
	0.000000000000000e+00
	-9.999999999999999e-05
	6.264858539537512e-08
	1.300000000000000e+00

 1	5.000000000000000e-02
	1.001880541864384e-12
	4.477275221351544e-12
	5.201779851835930e-01
	5.009402709281155e-13
	1.097066138476802e-13
	4.747203261524856e-13
	5.201779846551235e-01
	5.485330692339372e-14
	9.351782835717084e-12
	5.115039811300408e-12
	1.054949418886819e+00
	5.039616453486685e-12
	2.222514649211221e-12
	6.066962280391742e-12
	1.054949611230671e+00
	5.020842275244026e-12
	3.474461277601988e-11
	2.535942848409370e-11
	1.054949610424075e+00
	1.737230638787887e-11
	5.201779942074205e-01
	1.054949614433952e+00
	4.757148524748168e-02
	6.507606617688104e-01
	5.000000000000000e-02
	-9.999999999999999e-05
	-2.489807621137334e-05
	1.300000000000000e+00

 2	1.000000000000000e-01
	1.001881397970706e-12
	4.477278836786984e-12
	5.201784101678467e-01
	5.009406989812763e-13
	2.026814958516579e-13
	8.928357039445729e-13
	5.201784098532173e-01
	1.013407479250042e-13
	4.041592757967157e-12
	2.844226279730703e-12
	1.055053902560958e+00
	2.747185924665702e-12
	2.217580875265383e-12
	6.045529937887459e-12
	1.055054038086698e+00
	5.018378575653406e-12
	3.480731963717704e-11
	2.539156511613973e-11
	1.055054037283857e+00
	1.740365981845721e-11
	5.201784191917249e-01
	1.055054041296467e+00
	9.577904142306098e-02
	6.482319343608260e-01
	1.000000000000000e-01
	-9.999999999999999e-05
	-4.009924784964471e-05
	1.300000000000000e+00

 3	1.500000000000000e-01
	1.001882001310740e-12
	4.477281384760770e-12
	5.201787096749803e-01
	5.009410006512934e-13
	2.948050310108551e-13
	1.306738080659368e-12
	5.201787095110326e-01
	1.474025155042280e-13
	1.960375542882744e-12
	2.179960595163812e-12
	1.055130625069520e+00
	2.073022242096241e-12
	2.214201976999339e-12
	6.030847472313550e-12
	1.055130718871376e+00
	5.016691372824162e-12
	3.485343972262169e-11
	2.541520026478124e-11
	1.055130718071214e+00
	1.742671986117937e-11
	5.201787186988944e-01
	1.055130722085830e+00
	1.446153647865718e-01
	6.464995321661036e-01
	1.500000000000000e-01
	-9.999999999999999e-05
	-4.680776696951530e-05
	1.300000000000000e+00

 4	2.000000000000000e-01
	1.001882319884698e-12
	4.477282730134566e-12
	5.201788678198702e-01
	5.009411599382725e-13
	3.873063993889785e-13
	1.721874690935418e-12
	5.201788677353110e-01
	1.936531996929133e-13
	1.268406666020231e-12
	2.209170461194857e-12
	1.055186021359130e+00
	2.095712045145124e-12
	2.211857013785796e-12
	6.020656338909805e-12
	1.055186085033727e+00
	5.015520077304215e-12
	3.488677657491898e-11
	2.543228393717193e-11
	1.055186084235469e+00
	1.744338828732788e-11
	5.201788768438033e-01
	1.055186088251537e+00
	1.937684419554921e-01
	6.452970452580331e-01
	2.000000000000000e-01
	-9.999999999999999e-05
	-4.878335208442384e-05
	1.300000000000000e+00

 5	2.500000000000000e-01
	1.001882470262497e-12
	4.477283365196832e-12
	5.201789424696436e-01
	5.009412351271719e-13
	4.796908147681340e-13
	2.136220445039657e-12
	5.201789424224034e-01
	2.398454073821151e-13
	1.128812216406604e-12
	2.514401349443893e-12
	1.055225348812074e+00
	2.394036726254925e-12
	2.210237155215601e-12
	6.013615837547034e-12
	1.055225391097905e+00
	5.014710707892490e-12
	3.491046206681687e-11
	2.544442147861944e-11
	1.055225390300986e+00
	1.745523103327674e-11
	5.201789514935855e-01
	1.055225394318083e+00
	2.428508414018344e-01
	6.444663023130950e-01
	2.500000000000000e-01
	-9.999999999999999e-05
	-4.935341607034205e-05
	1.300000000000000e+00

 6	3.000000000000000e-01
	1.001882548888995e-12
	4.477283697245312e-12
	5.201789815010031e-01
	5.009412744404208e-13
	5.715018534478643e-13
	2.547887981646046e-12
	5.201789814731940e-01
	2.857509267216067e-13
	1.196234015831285e-12
	2.923116316296407e-12
	1.055252894688156e+00
	2.793504909683993e-12
	2.209124802134078e-12
	6.008780781753045e-12
	1.055252921992464e+00
	5.014154824086963e-12
	3.492706116407984e-11
	2.545292750897214e-11
	1.055252921196476e+00
	1.746353058190816e-11
	5.201789905249496e-01
	1.055252925214295e+00
	2.916184012982166e-01
	6.438957850784739e-01
	3.000000000000000e-01
	-9.999999999999999e-05
	-4.958413130314379e-05
	1.300000000000000e+00

 7	3.500000000000000e-01
	1.001882594480296e-12
	4.477283889782473e-12
	5.201790041332018e-01
	5.009412972360714e-13
	6.622026111569389e-13
	2.954531237223441e-12
	5.201790041166240e-01
	3.311013055757750e-13
	1.338194586284575e-12
	3.369097189505733e-12
	1.055271911363906e+00
	3.225777356345906e-12
	2.208367358100755e-12
	6.005488222971530e-12
	1.055271928325400e+00
	5.013776271811814e-12
	3.493852497538810e-11
	2.545880196213156e-11
	1.055271927530051e+00
	1.746926248756225e-11
	5.201790131571511e-01
	1.055271931548368e+00
	3.397906777747687e-01
	6.435072735092433e-01
	3.500000000000000e-01
	-9.999999999999999e-05
	-4.971275705108560e-05
	1.300000000000000e+00

 8	4.000000000000000e-01
	1.001882622624444e-12
	4.477284008638351e-12
	5.201790181043738e-01
	5.009413113081452e-13
	7.507817983622905e-13
	3.351639581039879e-12
	5.201790180947168e-01
	3.753908991780903e-13
	1.505180349917716e-12
	3.827590155912320e-12
	1.055284784810518e+00
	3.662088878226176e-12
	2.207859393661783e-12
	6.003280047303443e-12
	1.055284794770319e+00
	5.013522394376135e-12
	3.494628749526886e-11
	2.546277972041442e-11
	1.055284793975402e+00
	1.747314374750260e-11
	5.201790271283250e-01
	1.055284797994056e+00
	3.868331613723933e-01
	6.432467143823715e-01
	4.000000000000000e-01
	-9.999999999999999e-05
	-4.980109652723600e-05
	1.300000000000000e+00

 9	4.500000000000000e-01
	1.001882640551162e-12
	4.477284084344886e-12
	5.201790270034631e-01
	5.009413202715045e-13
	8.350304233493038e-13
	3.729320577082427e-12
	5.201790269982107e-01
	4.175152116712541e-13
	1.677532195289721e-12
	4.288766090353416e-12
	1.055293239798229e+00
	4.083821466918170e-12
	2.207527869124543e-12
	6.001838834138800e-12
	1.055293245159433e+00
	5.013356698850691e-12
	3.495138663051923e-11
	2.546539266596162e-11
	1.055293244364798e+00
	1.747569331512777e-11
	5.201790360274151e-01
	1.055293248383673e+00
	4.315740499516316e-01
	6.430766542626465e-01
	4.500000000000000e-01
	-9.999999999999999e-05
	-4.986876451742875e-05
	1.300000000000000e+00

 10	4.999999999999999e-01
	1.001882651899307e-12
	4.477284132269368e-12
	5.201790326368504e-01
	5.009413259455765e-13
	9.099933006527513e-13
	4.065366725731124e-12
	5.201790326343875e-01
	4.549966503226728e-13
	1.844146142089193e-12
	4.747073064969923e-12
	1.055298510284397e+00
	4.465693147344986e-12
	2.207322055335885e-12
	6.000944096810974e-12
	1.055298512779038e+00
	5.013253834206772e-12
	3.495456557454222e-11
	2.546702164512243e-11
	1.055298511984578e+00
	1.747728278713925e-11
	5.201790416608031e-01
	1.055298516003591e+00
	4.713826775664006e-01
	6.429710768713548e-01
	4.999999999999999e-01
	-9.999999999999999e-05
	-4.992146347852517e-05
	1.300000000000000e+00

 11	5.499999999999999e-01
	1.001882658500795e-12
	4.477284160148190e-12
	5.201790359139270e-01
	5.009413292463209e-13
	9.670515071966802e-13
	4.321145469063483e-12
	5.201790359130883e-01
	4.835257535944051e-13
	1.994477207514323e-12
	5.197238597374549e-12
	1.055301474818042e+00
	4.768108319570492e-12
	2.207206644463350e-12
	6.000442361567570e-12
	1.055301475700297e+00
	5.013196153348583e-12
	3.495635380946608e-11
	2.546793798449510e-11
	1.055301474905936e+00
	1.747817690460117e-11
	5.201790449378801e-01
	1.055301478925027e+00
	5.016826295381959e-01
	6.429118728969812e-01
	5.499999999999999e-01
	-9.999999999999999e-05
	-4.995845361067171e-05
	1.300000000000000e+00

 12	6.000000000000000e-01
	1.001882661292356e-12
	4.477284171937262e-12
	5.201790372996989e-01
	5.009413306421011e-13
	9.952289579454850e-13
	4.447457485846255e-12
	5.201790372995468e-01
	4.976144789686929e-13
	2.117529806123038e-12
	5.633764896150453e-12
	1.055302752949973e+00
	4.941857910171998e-12
	2.207156895812425e-12
	6.000226085106202e-12
	1.055302753137076e+00
	5.013171289416413e-12
	3.495712479612652e-11
	2.546833305860170e-11
	1.055302752342757e+00
	1.747856239793139e-11
	5.201790463236523e-01
	1.055302756361881e+00
	5.166457350652737e-01
	6.428863526121553e-01
	6.000000000000000e-01
	-9.999999999999999e-05
	-4.997601336988026e-05
	1.300000000000000e+00

 13	6.500000000000000e-01
	1.001882661961359e-12
	4.477284174762538e-12
	5.201790376318023e-01
	5.009413309766028e-13
	1.002374435097817e-12
	4.479488656676219e-12
	5.201790376318137e-01
	5.011872175448298e-13
	2.221499940654746e-12
	6.060749962856003e-12
	1.055303128415636e+00
	5.022301409672389e-12
	2.207142285167992e-12
	6.000162567402200e-12
	1.055303128398515e+00
	5.013163986584972e-12
	3.495735128529860e-11
	2.546844911764871e-11
	1.055303127604209e+00
	1.747867564251743e-11
	5.201790466557557e-01
	1.055303131623344e+00
	5.204401927020061e-01
	6.428788576279061e-01
	6.500000000000000e-01
	-9.999999999999999e-05
	-4.998040565193406e-05
	1.300000000000000e+00

 14	7.000000000000001e-01
	1.001882662125594e-12
	4.477284175456124e-12
	5.201790377133313e-01
	5.009413310587204e-13
	1.004106748275114e-12
	4.487254135232749e-12
	5.201790377133825e-01
	5.020533741334711e-13
	2.320932294435510e-12
	6.485466139181483e-12
	1.055303265376103e+00
	5.078916908525481e-12
	2.207136953700265e-12
	6.000139389874638e-12
	1.055303265284499e+00
	5.013161321462576e-12
	3.495743390295068e-11
	2.546849145311968e-11
	1.055303264490198e+00
	1.747871695134347e-11
	5.201790467372847e-01
	1.055303268509336e+00
	5.213601022983914e-01
	6.428761227220754e-01
	7.000000000000001e-01
	-9.999999999999999e-05
	-4.998147855044238e-05
	1.300000000000000e+00

 15	7.500000000000001e-01
	1.001882662215716e-12
	4.477284175836718e-12
	5.201790377580691e-01
	5.009413311037814e-13
	1.005105201360158e-12
	4.491729906115306e-12
	5.201790377581419e-01
	5.025526006759893e-13
	2.419888215391848e-12
	6.909944099094082e-12
	1.055303343554329e+00
	5.132371413341595e-12
	2.207133911571263e-12
	6.000126164793360e-12
	1.055303343420174e+00
	5.013159800733608e-12
	3.495748106232065e-11
	2.546851561882226e-11
	1.055303342625875e+00
	1.747874053102845e-11
	5.201790467820224e-01
	1.055303346645015e+00
	5.218903082109376e-01
	6.428745621865026e-01
	7.500000000000001e-01
	-9.999999999999999e-05
	-4.998208641796009e-05
	1.300000000000000e+00

 16	8.000000000000002e-01
	1.001882662273092e-12
	4.477284176079020e-12
	5.201790377865511e-01
	5.009413311324692e-13
	1.005712374172825e-12
	4.494451688808543e-12
	5.201790377866377e-01
	5.028561870823200e-13
	2.518540926385462e-12
	7.334270454025223e-12
	1.055303392553754e+00
	5.184115965123520e-12
	2.207132004598455e-12
	6.000117874592185e-12
	1.055303392392967e+00
	5.013158847460819e-12
	3.495751062009039e-11
	2.546853076500310e-11
	1.055303391598670e+00
	1.747875530991332e-11
	5.201790468105044e-01
	1.055303395617811e+00
	5.222127343827989e-01
	6.428735839578650e-01
	8.000000000000002e-01
	-9.999999999999999e-05
	-4.998245994761240e-05
	1.300000000000000e+00

 17	8.500000000000002e-01
	1.001882662319236e-12
	4.477284176273895e-12
	5.201790378094580e-01
	5.009413311555415e-13
	1.006213384071606e-12
	4.496697573272167e-12
	5.201790378095558e-01
	5.031066920317085e-13
	2.617128495152153e-12
	7.758564237842889e-12
	1.055303426202449e+00
	5.235405129019571e-12
	2.207130695242231e-12
	6.000112182391573e-12
	1.055303426023346e+00
	5.013158192954509e-12
	3.495753091787891e-11
	2.546854116612522e-11
	1.055303425229049e+00
	1.747876545880758e-11
	5.201790468334113e-01
	1.055303429248192e+00
	5.224787849849242e-01
	6.428729122881975e-01
	8.500000000000002e-01
	-9.999999999999999e-05
	-4.998276729166798e-05
	1.300000000000000e+00

 18	9.000000000000002e-01
	1.001882662361142e-12
	4.477284176450867e-12
	5.201790378302606e-01
	5.009413311764945e-13
	1.006662071147805e-12
	4.498708909333308e-12
	5.201790378303687e-01
	5.033310355698066e-13
	2.715685555210182e-12
	8.182842767306223e-12
	1.055303450583526e+00
	5.286470651570226e-12
	2.207129746741830e-12
	6.000108058920079e-12
	1.055303450391168e+00
	5.013157718860327e-12
	3.495754562520965e-11
	2.546854870254927e-11
	1.055303449596873e+00
	1.747877281247295e-11
	5.201790468542140e-01
	1.055303453616016e+00
	5.227170506548677e-01
	6.428724257253577e-01
	9.000000000000002e-01
	-9.999999999999999e-05
	-4.998304178816307e-05
	1.300000000000000e+00

 19	9.500000000000003e-01
	1.001882662399437e-12
	4.477284176612591e-12
	5.201790378492708e-01
	5.009413311956418e-13
	1.007081021220094e-12
	4.500586942764117e-12
	5.201790378493882e-01
	5.035405106059491e-13
	2.814225825101017e-12
	8.607112901685956e-12
	1.055303469153948e+00
	5.337409344908987e-12
	2.207129024466078e-12
	6.000104918906039e-12
	1.055303468951489e+00
	5.013157357865029e-12
	3.495755682739450e-11
	2.546855444284410e-11
	1.055303468157194e+00
	1.747877841356538e-11
	5.201790468732241e-01
	1.055303472176337e+00
	5.229395251076823e-01
	6.428720552085352e-01
	9.500000000000003e-01
	-9.999999999999999e-05
	-4.998329751854515e-05
	1.300000000000000e+00

 20	1.000000000000000e+00
	1.001882662435314e-12
	4.477284176764101e-12
	5.201790378670804e-01
	5.009413312135801e-13
	1.007480894798908e-12
	4.502379461606872e-12
	5.201790378672068e-01
	5.037404473953544e-13
	2.912755327716730e-12
	9.031377652428133e-12
	1.055303484081303e+00
	5.388266678268920e-12
	2.207128444020059e-12
	6.000102395463450e-12
	1.055303483870703e+00
	5.013157067775591e-12
	3.495756583197243e-11
	2.546855905702718e-11
	1.055303483076409e+00
	1.747878291585434e-11
	5.201790468910338e-01
	1.055303487095553e+00
	5.231518693816470e-01
	6.428717574459242e-01
	1.000000000000000e+00
	-9.999999999999999e-05
	-4.998354120507335e-05
	1.300000000000000e+00

 21	1.050000000000000e+00
	1.001882662470656e-12
	4.477284176913356e-12
	5.201790378846249e-01
	5.009413312312515e-13
	1.007867450190780e-12
	4.504112278716003e-12
	5.201790378847598e-01
	5.039337250912889e-13
	3.011277170304051e-12
	9.455638573156110e-12
	1.055303496855824e+00
	5.439067138974538e-12
	2.207127947408090e-12
	6.000100236466529e-12
	1.055303496638284e+00
	5.013156819601191e-12
	3.495757353792084e-11
	2.546856300575825e-11
	1.055303495843990e+00
	1.747878676882855e-11
	5.201790469085783e-01
	1.055303499863134e+00
	5.233571413035858e-01
	6.428715026871323e-01
	1.050000000000000e+00
	-9.999999999999999e-05
	-4.998377650578011e-05
	1.300000000000000e+00

 22	1.100000000000000e+00
	1.001882662504222e-12
	4.477284177055111e-12
	5.201790379012877e-01
	5.009413312480344e-13
	1.008244078698187e-12
	4.505800596339588e-12
	5.201790379014312e-01
	5.041220393449911e-13
	3.109793121324363e-12
	9.879896548100586e-12
	1.055303509005272e+00
	5.489825117853369e-12
	2.207127475097538e-12
	6.000098183118966e-12
	1.055303508781149e+00
	5.013156583570886e-12
	3.495758086682006e-11
	2.546856676127935e-11
	1.055303507986856e+00
	1.747879043327816e-11
	5.201790469252411e-01
	1.055303512006000e+00
	5.235571417530795e-01
	6.428712603948270e-01
	1.100000000000000e+00
	-9.999999999999999e-05
	-4.998400565990352e-05
	1.300000000000000e+00

 23	1.150000000000000e+00
	1.001882662538638e-12
	4.477284177200452e-12
	5.201790379183722e-01
	5.009413312652423e-13
	1.008612915904131e-12
	4.507453987690801e-12
	5.201790379185239e-01
	5.043064579479614e-13
	3.208304268075094e-12
	1.030415212091027e-11
	1.055303522156841e+00
	5.540549663975796e-12
	2.207126963785620e-12
	6.000095960221413e-12
	1.055303521925560e+00
	5.013156328043060e-12
	3.495758880021068e-11
	2.546857082655775e-11
	1.055303521131267e+00
	1.747879439997346e-11
	5.201790469423255e-01
	1.055303525150412e+00
	5.237530047863520e-01
	6.428709980959475e-01
	1.150000000000000e+00
	-9.999999999999999e-05
	-4.998423016687329e-05
	1.300000000000000e+00

 24	1.200000000000000e+00
	1.001882662571570e-12
	4.477284177339528e-12
	5.201790379347201e-01
	5.009413312817085e-13
	1.008975379860656e-12
	4.509078809496516e-12
	5.201790379348801e-01
	5.044876899262223e-13
	3.306811321528479e-12
	1.072840564707128e-11
	1.055303537517666e+00
	5.591246780528778e-12
	2.207126366400389e-12
	6.000093363150327e-12
	1.055303537278039e+00
	5.013156029473054e-12
	3.495759806629524e-11
	2.546857557474363e-11
	1.055303536483747e+00
	1.747879903301575e-11
	5.201790469586736e-01
	1.055303540502892e+00
	5.239454834301838e-01
	6.428706916454843e-01
	1.200000000000000e+00
	-9.999999999999999e-05
	-4.998445102012846e-05
	1.300000000000000e+00

 25	1.250000000000000e+00
	1.001882662603365e-12
	4.477284177473800e-12
	5.201790379505036e-01
	5.009413312976056e-13
	1.009332455262884e-12
	4.510679475866848e-12
	5.201790379506713e-01
	5.046662276273352e-13
	3.405314772106112e-12
	1.115265737179441e-11
	1.055303556657297e+00
	5.641920634485668e-12
	2.207125621829089e-12
	6.000090126234548e-12
	1.055303556407254e+00
	5.013155657305780e-12
	3.495760961185620e-11
	2.546858149099323e-11
	1.055303555612962e+00
	1.747880480579623e-11
	5.201790469744569e-01
	1.055303559632107e+00
	5.241351005862490e-01
	6.428703096947999e-01
	1.250000000000000e+00
	-9.999999999999999e-05
	-4.998466900925445e-05
	1.300000000000000e+00

 26	1.300000000000000e+00
	1.001882662636254e-12
	4.477284177612696e-12
	5.201790379668304e-01
	5.009413313140503e-13
	1.009684852548251e-12
	4.512259171492036e-12
	5.201790379670062e-01
	5.048424262700173e-13
	3.503814974192913e-12
	1.157690747227213e-11
	1.055303581980707e+00
	5.692574232510444e-12
	2.207124636474509e-12
	6.000085842579839e-12
	1.055303581716888e+00
	5.013155164750941e-12
	3.495762488765535e-11
	2.546858931871507e-11
	1.055303580922597e+00
	1.747881244369580e-11
	5.201790469907838e-01
	1.055303584941743e+00
	5.243222335174179e-01
	6.428698042311431e-01
	1.300000000000000e+00
	-9.999999999999999e-05
	-4.998488484685398e-05
	1.300000000000000e+00

