Title: mos current mirror with cascode stage simulation testbench (dc)
Date: Sun Dec 19 21:31:14  2021
Plotname: DC transfer characteristic
Flags: real
No. Variables: 20
No. Points: 27
Variables:
	0	n2	voltage
	1	m1#body	voltage
	2	m1#dbody	voltage
	3	m1#gate	voltage
	4	m1#sbody	voltage
	5	m2#body	voltage
	6	m2#dbody	voltage
	7	m2#gate	voltage
	8	m2#sbody	voltage
	9	m3#body	voltage
	10	m3#dbody	voltage
	11	m3#gate	voltage
	12	m3#sbody	voltage
	13	n1	voltage
	14	n3	voltage
	15	n4	voltage
	16	n_pos	voltage
	17	v-sweep	voltage
	18	i(v1)	current
	19	i(v2)	current
Values:
 0	0.000000000000000e+00
	1.001664049398949e-12
	4.476360892403184e-12
	5.200705075009496e-01
	5.008320246953985e-13
	4.719574146707459e-15
	2.391061566393492e-15
	5.200705067540590e-01
	2.359787073334525e-15
	2.141002359818004e-11
	1.070501179897869e-11
	1.054438703612107e+00
	1.070503531279588e-11
	5.200705165119162e-01
	1.054438974980259e+00
	3.007280203236373e-06
	1.300000000000000e+00
	0.000000000000000e+00
	-5.000000000000000e-05
	6.249681307191351e-08

 1	5.000000000000000e-02
	1.001724804303098e-12
	4.476617494642675e-12
	5.201006708023546e-01
	5.008624021474729e-13
	1.097000493951113e-13
	4.747224902278990e-13
	5.201006702746450e-01
	5.485002469710930e-14
	9.298047929457073e-12
	5.088172358170615e-12
	1.054646362513511e+00
	5.012754167626568e-12
	5.201006798169291e-01
	1.054646557646036e+00
	4.757216961849369e-02
	1.300000000000000e+00
	5.000000000000000e-02
	-5.000000000000000e-05
	-2.488366826990638e-05

 2	1.000000000000000e-01
	1.001770145418104e-12
	4.476808989991812e-12
	5.201231807718970e-01
	5.008850727049759e-13
	2.026774004881463e-13
	8.928399336571074e-13
	5.201231804576375e-01
	1.013387002432484e-13
	4.022809390905295e-12
	2.834834596199843e-12
	1.054800767105581e+00
	2.737800466682193e-12
	5.201231897891647e-01
	1.054800905588425e+00
	9.577987064163608e-02
	1.300000000000000e+00
	1.000000000000000e-01
	-5.000000000000000e-05
	-4.007952411877154e-05

 3	1.500000000000000e-01
	1.001803429777406e-12
	4.476949561074054e-12
	5.201397046236115e-01
	5.009017148846266e-13
	2.948020285486753e-13
	1.306740604794812e-12
	5.201397044598141e-01
	1.474010142731381e-13
	1.954087570585127e-12
	2.176816609015028e-12
	1.054914197678466e+00
	2.069882276261226e-12
	5.201397136428567e-01
	1.054914294539183e+00
	1.446159007451422e-01
	1.300000000000000e+00
	1.500000000000000e-01
	-5.000000000000000e-05
	-4.678898372378068e-05

 4	2.000000000000000e-01
	1.001827353689667e-12
	4.477050598204495e-12
	5.201515813121075e-01
	5.009136768407571e-13
	3.873032814494225e-13
	1.721872063479487e-12
	5.201515812276016e-01
	1.936516407231353e-13
	1.266344422037030e-12
	2.208139339203264e-12
	1.054996074273966e+00
	2.094679854879220e-12
	5.201515903327741e-01
	1.054996141069223e+00
	1.937682995224081e-01
	1.300000000000000e+00
	2.000000000000000e-01
	-5.000000000000000e-05
	-4.876882764902487e-05

 5	2.500000000000000e-01
	1.001844266524169e-12
	4.477122024841144e-12
	5.201599773403623e-01
	5.009221332580082e-13
	4.796868005607688e-13
	2.136210572123250e-12
	5.201599772931420e-01
	2.398434002784325e-13
	1.128134162750253e-12
	2.514062322615720e-12
	1.055054180451487e+00
	2.393689833840168e-12
	5.201599863620340e-01
	1.055054225895881e+00
	2.428497926606817e-01
	1.300000000000000e+00
	2.500000000000000e-01
	-5.000000000000000e-05
	-4.934305253038920e-05

 6	3.000000000000000e-01
	1.001856088076337e-12
	4.477171949466070e-12
	5.201658458528434e-01
	5.009280440340918e-13
	5.714961162097158e-13
	2.547868085777796e-12
	5.201658458250420e-01
	2.857480581025325e-13
	1.196005571869543e-12
	2.923002094315537e-12
	1.055094874553992e+00
	2.793373660528152e-12
	5.201658548752175e-01
	1.055094905040546e+00
	2.916161310094399e-01
	1.300000000000000e+00
	3.000000000000000e-01
	-5.000000000000000e-05
	-4.957688949133775e-05

 7	3.500000000000000e-01
	1.001864241413659e-12
	4.477206382343499e-12
	5.201698933468643e-01
	5.009321207027530e-13
	6.621936814858280e-13
	2.954495391733958e-12
	5.201698933302892e-01
	3.310968407402195e-13
	1.338111140637935e-12
	3.369055466682413e-12
	1.055122967495635e+00
	3.225704252889847e-12
	5.201699023697229e-01
	1.055122987654498e+00
	3.397864936907465e-01
	1.300000000000000e+00
	3.500000000000000e-01
	-5.000000000000000e-05
	-4.970771108750004e-05

 8	4.000000000000000e-01
	1.001869758407059e-12
	4.477229681421383e-12
	5.201726320906965e-01
	5.009348791994530e-13
	7.507665821410810e-13
	3.351574405826016e-12
	5.201726320810400e-01
	3.753832910674856e-13
	1.505139905545839e-12
	3.827569933726382e-12
	1.055141984993479e+00
	3.662011088943251e-12
	5.201726411138831e-01
	1.055141998160501e+00
	3.868254857595534e-01
	1.300000000000000e+00
	4.000000000000000e-01
	-5.000000000000000e-05
	-4.979754544162532e-05

 9	4.500000000000000e-01
	1.001873381232521e-12
	4.477244981109834e-12
	5.201744305272454e-01
	5.009366906121838e-13
	8.350019458382176e-13
	3.729195175804110e-12
	5.201744305219926e-01
	4.175009729157112e-13
	1.677495208923371e-12
	4.288747597170240e-12
	1.055154474919971e+00
	4.083691811214337e-12
	5.201744395506472e-01
	1.055154483494922e+00
	4.315592282822230e-01
	1.300000000000000e+00
	4.500000000000000e-01
	-5.000000000000000e-05
	-4.986619308844907e-05

 10	4.999999999999999e-01
	1.001875639458111e-12
	4.477254517890570e-12
	5.201755515495042e-01
	5.009378197249788e-13
	9.099362079291925e-13
	4.065112551945146e-12
	5.201755515470400e-01
	4.549681039608937e-13
	1.844086617751484e-12
	4.747043302801068e-12
	1.055162259836343e+00
	4.465437757752822e-12
	5.201755605730403e-01
	1.055162265549104e+00
	4.713525939099287e-01
	1.300000000000000e+00
	4.999999999999999e-01
	-5.000000000000000e-05
	-4.991949173588264e-05

 11	5.499999999999999e-01
	1.001876909491237e-12
	4.477259881399424e-12
	5.201761820150680e-01
	5.009384547415420e-13
	9.669425168839524e-13
	4.320658366821823e-12
	5.201761820142269e-01
	4.834712584380416e-13
	1.994369164103678e-12
	5.197184575669228e-12
	1.055166637469513e+00
	4.767621690780434e-12
	5.201761910386796e-01
	1.055166641572839e+00
	5.016249485934868e-01
	1.300000000000000e+00
	5.499999999999999e-01
	-5.000000000000000e-05
	-4.995679845910535e-05

 12	6.000000000000000e-01
	1.001877456521183e-12
	4.477262191575125e-12
	5.201764535697996e-01
	5.009387282565149e-13
	9.950559198409784e-13
	4.446683151797374e-12
	5.201764535696436e-01
	4.975279599164403e-13
	2.117362169250958e-12
	5.633681077714413e-12
	1.055168523171429e+00
	4.941086276739829e-12
	5.201764625934436e-01
	1.055168526581467e+00
	5.165540263989931e-01
	1.300000000000000e+00
	6.000000000000000e-01
	-5.000000000000000e-05
	-4.997447018146629e-05

 13	6.500000000000000e-01
	1.001877617016589e-12
	4.477262869367110e-12
	5.201765332423611e-01
	5.009388085042179e-13
	1.002177489373306e-12
	4.478607114408006e-12
	5.201765332423678e-01
	5.010887446825754e-13
	2.221311590956403e-12
	6.060655788006833e-12
	1.055169076874217e+00
	5.021424165417753e-12
	5.201765422660145e-01
	1.055169080080656e+00
	5.203357834477947e-01
	1.300000000000000e+00
	6.500000000000000e-01
	-5.000000000000000e-05
	-4.997889243401514e-05

 14	7.000000000000001e-01
	1.001877675538930e-12
	4.477263116514202e-12
	5.201765622938135e-01
	5.009388377653884e-13
	1.003906502137133e-12
	4.486357784046702e-12
	5.201765622938603e-01
	5.019532510644816e-13
	2.320741496089704e-12
	6.485370740008581e-12
	1.055169279009116e+00
	5.078025281236006e-12
	5.201765713174706e-01
	1.055169282141215e+00
	5.212539385493631e-01
	1.300000000000000e+00
	7.000000000000001e-01
	-5.000000000000000e-05
	-4.997997952129623e-05

 15	7.500000000000001e-01
	1.001877708979696e-12
	4.477263257738676e-12
	5.201765788943573e-01
	5.009388544857715e-13
	1.004903057887460e-12
	4.490825041693396e-12
	5.201765788944258e-01
	5.024515289396410e-13
	2.419695681805799e-12
	6.909847832301058e-12
	1.055169394520369e+00
	5.131471353863487e-12
	5.201765879180162e-01
	1.055169397609985e+00
	5.217831358527729e-01
	1.300000000000000e+00
	7.500000000000001e-01
	-5.000000000000000e-05
	-4.998059556426959e-05

 16	8.000000000000002e-01
	1.001877729916807e-12
	4.477263346158679e-12
	5.201765892878825e-01
	5.009388649543267e-13
	1.005509908149164e-12
	4.493545373428245e-12
	5.201765892879646e-01
	5.027549540704905e-13
	2.518348070726201e-12
	7.334174026195593e-12
	1.055169466841991e+00
	5.183214454925896e-12
	5.201765983115426e-01
	1.055169469905008e+00
	5.221053900669121e-01
	1.300000000000000e+00
	8.000000000000002e-01
	-5.000000000000000e-05
	-4.998097470917083e-05

 17	8.500000000000002e-01
	1.001877744325804e-12
	4.477263407009650e-12
	5.201765964407447e-01
	5.009388721588252e-13
	1.006010772471490e-12
	4.495790601887876e-12
	5.201765964408381e-01
	5.030053862316515e-13
	2.616935430273805e-12
	7.758467705403716e-12
	1.055169516590579e+00
	5.234502930996631e-12
	5.201766054644057e-01
	1.055169519635300e+00
	5.223713629069344e-01
	1.300000000000000e+00
	8.500000000000002e-01
	-5.000000000000000e-05
	-4.998128596928465e-05

 18	9.000000000000002e-01
	1.001877754760412e-12
	4.477263451076289e-12
	5.201766016206554e-01
	5.009388773761295e-13
	1.006459385246624e-12
	4.497801602451228e-12
	5.201766016207588e-01
	5.032296926192168e-13
	2.715492324708777e-12
	8.182746152055519e-12
	1.055169552598515e+00
	5.285568072388499e-12
	5.201766106443171e-01
	1.055169555629996e+00
	5.226095887972433e-01
	1.300000000000000e+00
	9.000000000000002e-01
	-5.000000000000000e-05
	-4.998156332504953e-05

 19	9.500000000000003e-01
	1.001877762722631e-12
	4.477263484701723e-12
	5.201766055732313e-01
	5.009388813572390e-13
	1.006878290484886e-12
	4.499679433099579e-12
	5.201766055733443e-01
	5.034391452383457e-13
	2.814032444589772e-12
	8.607016211430335e-12
	1.055169580049233e+00
	5.336506510356890e-12
	5.201766145968935e-01
	1.055169583070621e+00
	5.228320392013313e-01
	1.300000000000000e+00
	9.500000000000003e-01
	-5.000000000000000e-05
	-4.998182124889478e-05

 20	1.000000000000000e+00
	1.001877769143642e-12
	4.477263511818445e-12
	5.201766087607265e-01
	5.009388845677443e-13
	1.007278134201158e-12
	4.501471816660724e-12
	5.201766087608484e-01
	5.036390670964802e-13
	2.912561804528289e-12
	9.031280890833913e-12
	1.055169602174703e+00
	5.387363652027882e-12
	5.201766177843891e-01
	1.055169605187957e+00
	5.230443674285834e-01
	1.300000000000000e+00
	1.000000000000000e+00
	-5.000000000000000e-05
	-4.998206671178579e-05

 21	1.050000000000000e+00
	1.001877774624925e-12
	4.477263534966578e-12
	5.201766114817249e-01
	5.009388873083859e-13
	1.007664668082413e-12
	4.503204536163215e-12
	5.201766114818555e-01
	5.038323340371061e-13
	3.011083508269685e-12
	9.455541742138928e-12
	1.055169621045370e+00
	5.438163956459205e-12
	5.201766205053878e-01
	1.055169624051688e+00
	5.232496277703444e-01
	1.300000000000000e+00
	1.050000000000000e+00
	-5.000000000000000e-05
	-4.998230353368447e-05

 22	1.100000000000000e+00
	1.001877779824272e-12
	4.477263556924065e-12
	5.201766140627665e-01
	5.009388899080595e-13
	1.008041280600756e-12
	4.504892780998118e-12
	5.201766140629056e-01
	5.040206402962761e-13
	3.109599323175173e-12
	9.879799649025991e-12
	1.055169638948647e+00
	5.488921802486472e-12
	5.201766230864298e-01
	1.055169641948384e+00
	5.234496195806176e-01
	1.300000000000000e+00
	1.100000000000000e+00
	-5.000000000000000e-05
	-4.998253413479180e-05

 23	1.150000000000000e+00
	1.001877785476925e-12
	4.477263580795911e-12
	5.201766168688355e-01
	5.009388927343856e-13
	1.008410106354868e-12
	4.506546119776883e-12
	5.201766168689829e-01
	5.042050531733306e-13
	3.208110336635387e-12
	1.030405515519042e-11
	1.055169658418830e+00
	5.539646235117102e-12
	5.201766258924990e-01
	1.055169661411410e+00
	5.236454763676852e-01
	1.300000000000000e+00
	1.150000000000000e+00
	-5.000000000000000e-05
	-4.998276021621383e-05

 24	1.200000000000000e+00
	1.001877792063569e-12
	4.477263608612123e-12
	5.201766201385537e-01
	5.009388960277079e-13
	1.008772562681406e-12
	4.508170905894633e-12
	5.201766201387091e-01
	5.043862813365985e-13
	3.306617259640654e-12
	1.072830861612737e-11
	1.055169681126404e+00
	5.590343254573051e-12
	5.201766291622176e-01
	1.055169684110635e+00
	5.238379507617867e-01
	1.300000000000000e+00
	1.200000000000000e+00
	-5.000000000000000e-05
	-4.998298290460640e-05

 25	1.250000000000000e+00
	1.001877800276251e-12
	4.477263643295288e-12
	5.201766242154631e-01
	5.009389001340487e-13
	1.009129634482693e-12
	4.509771554210776e-12
	5.201766242156264e-01
	5.045648172372405e-13
	3.405120583407994e-12
	1.115256027744535e-11
	1.055169709465440e+00
	5.641017028871070e-12
	5.201766332391276e-01
	1.055169712439251e+00
	5.240275657506890e-01
	1.300000000000000e+00
	1.250000000000000e+00
	-5.000000000000000e-05
	-4.998320318108185e-05

 26	1.300000000000000e+00
	1.001877811129561e-12
	4.477263689130158e-12
	5.201766296032244e-01
	5.009389055607040e-13
	1.009482032959319e-12
	4.511351252573306e-12
	5.201766296033957e-01
	5.047410164755518e-13
	3.503620663681167e-12
	1.157681031701626e-11
	1.055169746944756e+00
	5.691670568130742e-12
	5.201766386268895e-01
	1.055169749904783e+00
	5.242146989674192e-01
	1.300000000000000e+00
	1.300000000000000e+00
	-5.000000000000000e-05
	-4.998342203877684e-05

