Title: dc tb
Date: Thu Jun  2 08:53:18  2022
Plotname: DC transfer characteristic
Flags: real
No. Variables: 20
No. Points: 27
Variables:
	0	n2	voltage
	1	m1#body	voltage
	2	m1#dbody	voltage
	3	m1#gate	voltage
	4	m1#sbody	voltage
	5	m2#body	voltage
	6	m2#dbody	voltage
	7	m2#gate	voltage
	8	m2#sbody	voltage
	9	m3#body	voltage
	10	m3#dbody	voltage
	11	m3#gate	voltage
	12	m3#sbody	voltage
	13	n1	voltage
	14	n3	voltage
	15	n4	voltage
	16	v-sweep	voltage
	17	i(v1)	current
	18	i(v2)	current
	19	vp	voltage
Values:
 0	1.300000000000000e+00
	1.299999999998980e+00
	1.299999999995463e+00
	7.730174156298530e-01
	1.299999999999490e+00
	1.299999999999990e+00
	1.299999999999995e+00
	7.730174156500756e-01
	1.299999999999995e+00
	1.299999999962095e+00
	1.299999999981047e+00
	2.730183891122991e-01
	1.299999999981048e+00
	7.730174156096070e-01
	2.730183868794948e-01
	1.299999994206487e+00
	0.000000000000000e+00
	-4.999999999991643e-05
	8.871323640968765e-11
	1.300000000000000e+00

 1	1.250000000000000e+00
	1.299999999998980e+00
	1.299999999995463e+00
	7.730173552354950e-01
	1.299999999999490e+00
	1.299999999999886e+00
	1.299999999999526e+00
	7.730173552498515e-01
	1.299999999999943e+00
	1.299999999984377e+00
	1.299999999991750e+00
	2.730180714203830e-01
	1.299999999991799e+00
	7.730173552152488e-01
	2.730180697777106e-01
	1.252732187100153e+00
	5.000000000000000e-02
	-4.999999999983831e-05
	-1.976499544271114e-05
	1.300000000000000e+00

 2	1.200000000000000e+00
	1.299999999998980e+00
	1.299999999995463e+00
	7.730173126289053e-01
	1.299999999999490e+00
	1.299999999999794e+00
	1.299999999999113e+00
	7.730173126388741e-01
	1.299999999999897e+00
	1.299999999993666e+00
	1.299999999996010e+00
	2.730178478489689e-01
	1.299999999996081e+00
	7.730173126086592e-01
	2.730178466213535e-01
	1.205124562801690e+00
	1.000000000000000e-01
	-4.999999999983094e-05
	-3.406710097068714e-05
	1.300000000000000e+00

 3	1.150000000000000e+00
	1.299999999998980e+00
	1.299999999995463e+00
	7.730172814468822e-01
	1.299999999999490e+00
	1.299999999999703e+00
	1.299999999998705e+00
	7.730172814536148e-01
	1.299999999999852e+00
	1.299999999997229e+00
	1.299999999997415e+00
	2.730176842809154e-01
	1.299999999997502e+00
	7.730172814266362e-01
	2.730176833569377e-01
	1.157122811781246e+00
	1.500000000000000e-01
	-4.999999999996099e-05
	-4.303628872953311e-05
	1.300000000000000e+00

 4	1.100000000000000e+00
	1.299999999998980e+00
	1.299999999995463e+00
	7.730172580588652e-01
	1.299999999999490e+00
	1.299999999999612e+00
	1.299999999998297e+00
	7.730172580632567e-01
	1.299999999999806e+00
	1.299999999998453e+00
	1.299999999997651e+00
	2.730175614070651e-01
	1.299999999997751e+00
	7.730172580386192e-01
	2.730175607112659e-01
	1.108750683926165e+00
	2.000000000000000e-01
	-5.000000000014283e-05
	-4.739083268941267e-05
	1.300000000000000e+00

 5	1.050000000000000e+00
	1.299999999998980e+00
	1.299999999995463e+00
	7.730172403357687e-01
	1.299999999999490e+00
	1.299999999999521e+00
	1.299999999997888e+00
	7.730172403385124e-01
	1.299999999999761e+00
	1.299999999998776e+00
	1.299999999997438e+00
	2.730174680157295e-01
	1.299999999997549e+00
	7.730172403155227e-01
	2.730174674934814e-01
	1.060261112568595e+00
	2.500000000000000e-01
	-5.000000000023456e-05
	-4.893902975848866e-05
	1.300000000000000e+00

 6	1.000000000000000e+00
	1.299999999998980e+00
	1.299999999995463e+00
	7.730172268973962e-01
	1.299999999999490e+00
	1.299999999999430e+00
	1.299999999997481e+00
	7.730172268990193e-01
	1.299999999999715e+00
	1.299999999998771e+00
	1.299999999997061e+00
	2.730173969169937e-01
	1.299999999997185e+00
	7.730172268771501e-01
	2.730173965269940e-01
	1.012045914264478e+00
	3.000000000000000e-01
	-5.000000000034691e-05
	-4.945446353577659e-05
	1.300000000000000e+00

 7	9.500000000000001e-01
	1.299999999998980e+00
	1.299999999995463e+00
	7.730172167472680e-01
	1.299999999999490e+00
	1.299999999999341e+00
	1.299999999997079e+00
	7.730172167481600e-01
	1.299999999999671e+00
	1.299999999998651e+00
	1.299999999996626e+00
	2.730173429615530e-01
	1.299999999996768e+00
	7.730172167270219e-01
	2.730173426720243e-01
	9.644875727746821e-01
	3.500000000000000e-01
	-5.000000000007120e-05
	-4.967068184254025e-05
	1.300000000000000e+00

 8	9.000000000000001e-01
	1.299999999998980e+00
	1.299999999995463e+00
	7.730172091391828e-01
	1.299999999999490e+00
	1.299999999999254e+00
	1.299999999996688e+00
	7.730172091396235e-01
	1.299999999999627e+00
	1.299999999998492e+00
	1.299999999996171e+00
	2.730173023054617e-01
	1.299999999996341e+00
	7.730172091189368e-01
	2.730173020917311e-01
	9.181200401187644e-01
	4.000000000000000e-01
	-5.000000000042427e-05
	-4.978965174695302e-05
	1.300000000000000e+00

 9	8.500000000000001e-01
	1.299999999998980e+00
	1.299999999995463e+00
	7.730172035099375e-01
	1.299999999999490e+00
	1.299999999999170e+00
	1.299999999996315e+00
	7.730172035101225e-01
	1.299999999999585e+00
	1.299999999998323e+00
	1.299999999995711e+00
	2.730172720501882e-01
	1.299999999995925e+00
	7.730172034896915e-01
	2.730172718929392e-01
	8.739350699155385e-01
	4.500000000000000e-01
	-4.999999999989387e-05
	-4.986877996217168e-05
	1.300000000000000e+00

 10	8.000000000000000e-01
	1.299999999998980e+00
	1.299999999995463e+00
	7.730171994373787e-01
	1.299999999999490e+00
	1.299999999999095e+00
	1.299999999995977e+00
	7.730171994374380e-01
	1.299999999999548e+00
	1.299999999998157e+00
	1.299999999995253e+00
	2.730172500309611e-01
	1.299999999995542e+00
	7.730171994171326e-01
	2.730172499148743e-01
	8.338686051248693e-01
	4.999999999999999e-01
	-4.999999999988967e-05
	-4.992632825698002e-05
	1.300000000000000e+00

 11	7.500000000000001e-01
	1.299999999998980e+00
	1.299999999995463e+00
	7.730171966117104e-01
	1.299999999999490e+00
	1.299999999999034e+00
	1.299999999995702e+00
	7.730171966117219e-01
	1.299999999999517e+00
	1.299999999998003e+00
	1.299999999994801e+00
	2.730172346664559e-01
	1.299999999995220e+00
	7.730171965914644e-01
	2.730172345791279e-01
	8.013369960069188e-01
	5.499999999999999e-01
	-4.999999999990625e-05
	-4.996728546106716e-05
	1.300000000000000e+00

 12	7.000000000000001e-01
	1.299999999998980e+00
	1.299999999995463e+00
	7.730171947823560e-01
	1.299999999999490e+00
	1.299999999998993e+00
	1.299999999995520e+00
	7.730171947823571e-01
	1.299999999999497e+00
	1.299999999997868e+00
	1.299999999994359e+00
	2.730172246736747e-01
	1.299999999994991e+00
	7.730171947621099e-01
	2.730172246050702e-01
	7.797391116111985e-01
	6.000000000000000e-01
	-5.000000000002017e-05
	-4.999239998428387e-05
	1.300000000000000e+00

 13	6.500000000000000e-01
	1.299999999998980e+00
	1.299999999995463e+00
	7.730171937185143e-01
	1.299999999999490e+00
	1.299999999998977e+00
	1.299999999995446e+00
	7.730171937185141e-01
	1.299999999999488e+00
	1.299999999997757e+00
	1.299999999993928e+00
	2.730172188519751e-01
	1.299999999994870e+00
	7.730171936982683e-01
	2.730172187942830e-01
	7.710416110510077e-01
	6.500000000000000e-01
	-5.000000000019559e-05
	-5.000219846249497e-05
	1.300000000000000e+00

 14	6.000000000000000e-01
	1.299999999998980e+00
	1.299999999995463e+00
	7.730171930925990e-01
	1.299999999999490e+00
	1.299999999998973e+00
	1.299999999995430e+00
	7.730171930925991e-01
	1.299999999999487e+00
	1.299999999997656e+00
	1.299999999993503e+00
	2.730172154249362e-01
	1.299999999994805e+00
	7.730171930723529e-01
	2.730172153736687e-01
	7.690953970109478e-01
	7.000000000000001e-01
	-4.999999999998994e-05
	-5.000441431399899e-05
	1.300000000000000e+00

 15	5.499999999999999e-01
	1.299999999998980e+00
	1.299999999995463e+00
	7.730171926738673e-01
	1.299999999999490e+00
	1.299999999998971e+00
	1.299999999995421e+00
	7.730171926738665e-01
	1.299999999999486e+00
	1.299999999997556e+00
	1.299999999993078e+00
	2.730172131343178e-01
	1.299999999994747e+00
	7.730171926536212e-01
	2.730172130873437e-01
	7.679996332312086e-01
	7.500000000000001e-01
	-5.000000000009776e-05
	-5.000558213830663e-05
	1.300000000000000e+00

 16	4.999999999999999e-01
	1.299999999998980e+00
	1.299999999995463e+00
	7.730171923990294e-01
	1.299999999999490e+00
	1.299999999998970e+00
	1.299999999995417e+00
	7.730171923990287e-01
	1.299999999999485e+00
	1.299999999997457e+00
	1.299999999992654e+00
	2.730172116292364e-01
	1.299999999994694e+00
	7.730171923787834e-01
	2.730172115850840e-01
	7.675398212942365e-01
	8.000000000000002e-01
	-5.000000000021756e-05
	-5.000609173295479e-05
	1.300000000000000e+00

 17	4.499999999999998e-01
	1.299999999998980e+00
	1.299999999995463e+00
	7.730171922208019e-01
	1.299999999999490e+00
	1.299999999998969e+00
	1.299999999995413e+00
	7.730171922208011e-01
	1.299999999999485e+00
	1.299999999997358e+00
	1.299999999992229e+00
	2.730172106535794e-01
	1.299999999994642e+00
	7.730171922005559e-01
	2.730172106112559e-01
	7.671840237147594e-01
	8.500000000000002e-01
	-4.999999999982965e-05
	-5.000648554300447e-05
	1.300000000000000e+00

 18	3.999999999999998e-01
	1.299999999998980e+00
	1.299999999995463e+00
	7.730171921109591e-01
	1.299999999999490e+00
	1.299999999998969e+00
	1.299999999995411e+00
	7.730171921109582e-01
	1.299999999999484e+00
	1.299999999997260e+00
	1.299999999991805e+00
	2.730172100525904e-01
	1.299999999994590e+00
	7.730171920907131e-01
	2.730172100113933e-01
	7.668771229372666e-01
	9.000000000000002e-01
	-5.000000000035542e-05
	-5.000682534314128e-05
	1.300000000000000e+00

 19	3.499999999999998e-01
	1.299999999998980e+00
	1.299999999995463e+00
	7.730171920489556e-01
	1.299999999999490e+00
	1.299999999998968e+00
	1.299999999995409e+00
	7.730171920489546e-01
	1.299999999999484e+00
	1.299999999997161e+00
	1.299999999991381e+00
	2.730172097129352e-01
	1.299999999994539e+00
	7.730171920287096e-01
	2.730172096723750e-01
	7.665953517651160e-01
	9.500000000000003e-01
	-4.999999999981677e-05
	-5.000713711053530e-05
	1.300000000000000e+00

 20	2.999999999999998e-01
	1.299999999998980e+00
	1.299999999995463e+00
	7.730171920192666e-01
	1.299999999999490e+00
	1.299999999998968e+00
	1.299999999995406e+00
	7.730171920192656e-01
	1.299999999999484e+00
	1.299999999997062e+00
	1.299999999990956e+00
	2.730172095507943e-01
	1.299999999994487e+00
	7.730171919990205e-01
	2.730172095105380e-01
	7.663293329922191e-01
	1.000000000000000e+00
	-4.999999999976960e-05
	-5.000743126449669e-05
	1.300000000000000e+00

 21	2.499999999999998e-01
	1.299999999998980e+00
	1.299999999995463e+00
	7.730171920071586e-01
	1.299999999999490e+00
	1.299999999998967e+00
	1.299999999995404e+00
	7.730171920071576e-01
	1.299999999999484e+00
	1.299999999996964e+00
	1.299999999990532e+00
	2.730172094847093e-01
	1.299999999994436e+00
	7.730171919869125e-01
	2.730172094445767e-01
	7.660742365201498e-01
	1.050000000000000e+00
	-4.999999999996065e-05
	-5.000771318081619e-05
	1.300000000000000e+00

 22	1.999999999999997e-01
	1.299999999998980e+00
	1.299999999995463e+00
	7.730171919802463e-01
	1.299999999999490e+00
	1.299999999998967e+00
	1.299999999995402e+00
	7.730171919802452e-01
	1.299999999999484e+00
	1.299999999996866e+00
	1.299999999990108e+00
	2.730172093369400e-01
	1.299999999994385e+00
	7.730171919600003e-01
	2.730172092970846e-01
	7.658272819146348e-01
	1.100000000000000e+00
	-4.999999999973284e-05
	-5.000798597694063e-05
	1.300000000000000e+00

 23	1.499999999999997e-01
	1.299999999998980e+00
	1.299999999995463e+00
	7.730171919223411e-01
	1.299999999999490e+00
	1.299999999998966e+00
	1.299999999995400e+00
	7.730171919223400e-01
	1.299999999999483e+00
	1.299999999996767e+00
	1.299999999989684e+00
	2.730172090204477e-01
	1.299999999994334e+00
	7.730171919020951e-01
	2.730172089811854e-01
	7.655867290647838e-01
	1.150000000000000e+00
	-4.999999999997072e-05
	-5.000825160106316e-05
	1.300000000000000e+00

 24	9.999999999999964e-02
	1.299999999998980e+00
	1.299999999995463e+00
	7.730171918191420e-01
	1.299999999999490e+00
	1.299999999998966e+00
	1.299999999995398e+00
	7.730171918191407e-01
	1.299999999999483e+00
	1.299999999996668e+00
	1.299999999989259e+00
	2.730172084552241e-01
	1.299999999994283e+00
	7.730171917988959e-01
	2.730172084170214e-01
	7.653514170253954e-01
	1.200000000000000e+00
	-5.000000000026172e-05
	-5.000851135714482e-05
	1.300000000000000e+00

 25	4.999999999999960e-02
	1.299999999998980e+00
	1.299999999995463e+00
	7.730171916507356e-01
	1.299999999999490e+00
	1.299999999998966e+00
	1.299999999995396e+00
	7.730171916507343e-01
	1.299999999999483e+00
	1.299999999996570e+00
	1.299999999988835e+00
	2.730172075334654e-01
	1.299999999994232e+00
	7.730171916304895e-01
	2.730172074969906e-01
	7.651205312597760e-01
	1.250000000000000e+00
	-5.000000000026026e-05
	-5.000876616929200e-05
	1.300000000000000e+00

 26	-4.440892098500626e-16
	1.299999999998980e+00
	1.299999999995463e+00
	7.730171913910937e-01
	1.299999999999490e+00
	1.299999999998965e+00
	1.299999999995394e+00
	7.730171913910925e-01
	1.299999999999483e+00
	1.299999999996471e+00
	1.299999999988410e+00
	2.730172061125529e-01
	1.299999999994181e+00
	7.730171913708477e-01
	2.730172060787416e-01
	7.648934766418884e-01
	1.300000000000000e+00
	-5.000000000040942e-05
	-5.000901672357809e-05
	1.300000000000000e+00

