Title: dc tb
Date: Tue Dec 26 20:03:40  2023
Plotname: DC transfer characteristic
Flags: real
No. Variables: 20
No. Points: 27
Variables:
	0	n2	voltage
	1	m1#body	voltage
	2	m1#dbody	voltage
	3	m1#gate	voltage
	4	m1#sbody	voltage
	5	m2#body	voltage
	6	m2#dbody	voltage
	7	m2#gate	voltage
	8	m2#sbody	voltage
	9	m3#body	voltage
	10	m3#dbody	voltage
	11	m3#gate	voltage
	12	m3#sbody	voltage
	13	n1	voltage
	14	n3	voltage
	15	n4	voltage
	16	v-sweep	voltage
	17	i(v1)	current
	18	i(v2)	current
	19	vp	voltage
Values:
 0	1.300000000000000e+00
	1.299999999999126e+00
	1.299999999996093e+00
	8.473734356915218e-01
	1.299999999999563e+00
	1.299999999999996e+00
	1.299999999999998e+00
	8.473734357481382e-01
	1.299999999999998e+00
	1.299999999995446e+00
	1.299999999997723e+00
	4.108742485883550e-01
	1.299999999997723e+00
	8.473734356348637e-01
	4.108742439058723e-01
	1.299999996617868e+00
	0.000000000000000e+00
	-5.000000000038372e-05
	9.481657473053851e-11
	1.300000000000000e+00

 1	1.250000000000000e+00
	1.299999999999126e+00
	1.299999999996093e+00
	8.473733966179150e-01
	1.299999999999563e+00
	1.299999999999890e+00
	1.299999999999521e+00
	8.473733966565806e-01
	1.299999999999945e+00
	1.299999999998138e+00
	1.299999999998630e+00
	4.108740105014273e-01
	1.299999999998632e+00
	8.473733965612569e-01
	4.108740069652296e-01
	1.251979910988861e+00
	5.000000000000000e-02
	-5.000000000042720e-05
	-2.599361632281069e-05
	1.300000000000000e+00

 2	1.200000000000000e+00
	1.299999999999126e+00
	1.299999999996093e+00
	8.473733668056040e-01
	1.299999999999563e+00
	1.299999999999797e+00
	1.299999999999102e+00
	8.473733668311730e-01
	1.299999999999898e+00
	1.299999999999012e+00
	1.299999999998683e+00
	4.108738283184276e-01
	1.299999999998694e+00
	8.473733667489460e-01
	4.108738256598609e-01
	1.203522025235558e+00
	1.000000000000000e-01
	-5.000000000025150e-05
	-4.114678782579650e-05
	1.300000000000000e+00

 3	1.150000000000000e+00
	1.299999999999126e+00
	1.299999999996093e+00
	8.473733440178447e-01
	1.299999999999563e+00
	1.299999999999705e+00
	1.299999999998688e+00
	8.473733440340675e-01
	1.299999999999852e+00
	1.299999999999205e+00
	1.299999999998403e+00
	4.108736884777791e-01
	1.299999999998422e+00
	8.473733439611866e-01
	4.108736864934183e-01
	1.154644658448181e+00
	1.500000000000000e-01
	-5.000000000050323e-05
	-4.731639656403892e-05
	1.300000000000000e+00

 4	1.100000000000000e+00
	1.299999999999126e+00
	1.299999999996093e+00
	8.473733267040992e-01
	1.299999999999563e+00
	1.299999999999612e+00
	1.299999999998274e+00
	8.473733267138683e-01
	1.299999999999806e+00
	1.299999999999150e+00
	1.299999999998000e+00
	4.108735816593010e-01
	1.299999999998027e+00
	8.473733266474410e-01
	4.108735801904733e-01
	1.105667476375960e+00
	2.000000000000000e-01
	-5.000000000029112e-05
	-4.900183559466455e-05
	1.300000000000000e+00

 5	1.050000000000000e+00
	1.299999999999126e+00
	1.299999999996093e+00
	8.473733136667049e-01
	1.299999999999563e+00
	1.299999999999520e+00
	1.299999999997863e+00
	8.473733136721956e-01
	1.299999999999760e+00
	1.299999999999010e+00
	1.299999999997555e+00
	4.108735007128678e-01
	1.299999999997592e+00
	8.473733136100470e-01
	4.108734996351853e-01
	1.057000279686393e+00
	2.500000000000000e-01
	-5.000000000036822e-05
	-4.948965632902563e-05
	1.300000000000000e+00

 6	1.000000000000000e+00
	1.299999999999126e+00
	1.299999999996093e+00
	8.473733039457962e-01
	1.299999999999563e+00
	1.299999999999430e+00
	1.299999999997458e+00
	8.473733039485913e-01
	1.299999999999715e+00
	1.299999999998842e+00
	1.299999999997096e+00
	4.108734399224488e-01
	1.299999999997148e+00
	8.473733038891382e-01
	4.108734391389186e-01
	1.009063825122702e+00
	3.000000000000000e-01
	-5.000000000044418e-05
	-4.969453267872608e-05
	1.300000000000000e+00

 7	9.500000000000001e-01
	1.299999999999126e+00
	1.299999999996093e+00
	8.473732967954885e-01
	1.299999999999563e+00
	1.299999999999343e+00
	1.299999999997066e+00
	8.473732967967110e-01
	1.299999999999671e+00
	1.299999999998666e+00
	1.299999999996633e+00
	4.108733948462723e-01
	1.299999999996712e+00
	8.473732967388303e-01
	4.108733942811891e-01
	9.626339326127665e-01
	3.500000000000000e-01
	-5.000000000072207e-05
	-4.981228309392568e-05
	1.300000000000000e+00

 8	9.000000000000001e-01
	1.299999999999126e+00
	1.299999999996093e+00
	8.473732916532899e-01
	1.299999999999563e+00
	1.299999999999262e+00
	1.299999999996702e+00
	8.473732916537068e-01
	1.299999999999631e+00
	1.299999999998493e+00
	1.299999999996172e+00
	4.108733621433682e-01
	1.299999999996302e+00
	8.473732915966318e-01
	4.108733617370303e-01
	9.194660298164473e-01
	4.000000000000000e-01
	-5.000000000024484e-05
	-4.989289446501958e-05
	1.300000000000000e+00

 9	8.500000000000001e-01
	1.299999999999126e+00
	1.299999999996093e+00
	8.473732881133207e-01
	1.299999999999563e+00
	1.299999999999194e+00
	1.299999999996397e+00
	8.473732881134121e-01
	1.299999999999597e+00
	1.299999999998332e+00
	1.299999999995716e+00
	4.108733394285632e-01
	1.299999999995951e+00
	8.473732880566626e-01
	4.108733391326693e-01
	8.833658925790163e-01
	4.500000000000000e-01
	-5.000000000009970e-05
	-4.994952278619940e-05
	1.300000000000000e+00

 10	8.000000000000000e-01
	1.299999999999126e+00
	1.299999999996093e+00
	8.473732858562311e-01
	1.299999999999563e+00
	1.299999999999148e+00
	1.299999999996192e+00
	8.473732858562428e-01
	1.299999999999574e+00
	1.299999999998193e+00
	1.299999999995271e+00
	4.108733248327879e-01
	1.299999999995699e+00
	8.473732857995729e-01
	4.108733246079628e-01
	8.590628677705587e-01
	4.999999999999999e-01
	-5.000000000032151e-05
	-4.998405800580663e-05
	1.300000000000000e+00

 11	7.500000000000001e-01
	1.299999999999126e+00
	1.299999999996093e+00
	8.473732845925055e-01
	1.299999999999563e+00
	1.299999999999131e+00
	1.299999999996116e+00
	8.473732845925070e-01
	1.299999999999565e+00
	1.299999999998080e+00
	1.299999999994840e+00
	4.108733166306454e-01
	1.299999999995575e+00
	8.473732845358474e-01
	4.108733164457844e-01
	8.500769899816482e-01
	5.499999999999999e-01
	-5.000000000022434e-05
	-4.999634559640920e-05
	1.300000000000000e+00

 12	7.000000000000001e-01
	1.299999999999126e+00
	1.299999999996093e+00
	8.473732838674678e-01
	1.299999999999563e+00
	1.299999999999128e+00
	1.299999999996103e+00
	8.473732838674704e-01
	1.299999999999564e+00
	1.299999999997980e+00
	1.299999999994415e+00
	4.108733119188174e-01
	1.299999999995513e+00
	8.473732838108097e-01
	4.108733117569198e-01
	8.485469200651783e-01
	6.000000000000000e-01
	-4.999999999983942e-05
	-4.999848088052550e-05
	1.300000000000000e+00

 13	6.500000000000000e-01
	1.299999999999126e+00
	1.299999999996093e+00
	8.473732833820339e-01
	1.299999999999563e+00
	1.299999999999125e+00
	1.299999999996093e+00
	8.473732833820339e-01
	1.299999999999562e+00
	1.299999999997880e+00
	1.299999999993990e+00
	4.108733087668164e-01
	1.299999999995455e+00
	8.473732833253758e-01
	4.108733086202778e-01
	8.473828253938217e-01
	6.500000000000000e-01
	-5.000000000072154e-05
	-4.999997133908372e-05
	1.300000000000000e+00

 14	6.000000000000000e-01
	1.299999999999126e+00
	1.299999999996093e+00
	8.473732830744998e-01
	1.299999999999563e+00
	1.299999999999125e+00
	1.299999999996090e+00
	8.473732830744996e-01
	1.299999999999562e+00
	1.299999999997781e+00
	1.299999999993565e+00
	4.108733067689916e-01
	1.299999999995402e+00
	8.473732830178416e-01
	4.108733066321888e-01
	8.469842049898242e-01
	7.000000000000001e-01
	-5.000000000047485e-05
	-5.000050819886929e-05
	1.300000000000000e+00

 15	5.499999999999999e-01
	1.299999999999126e+00
	1.299999999996093e+00
	8.473732828837364e-01
	1.299999999999563e+00
	1.299999999999124e+00
	1.299999999996087e+00
	8.473732828837359e-01
	1.299999999999562e+00
	1.299999999997682e+00
	1.299999999993141e+00
	4.108733055297275e-01
	1.299999999995351e+00
	8.473732828270782e-01
	4.108733053989638e-01
	8.466594684635177e-01
	7.500000000000001e-01
	-5.000000000022592e-05
	-5.000094378104867e-05
	1.300000000000000e+00

 16	4.999999999999999e-01
	1.299999999999126e+00
	1.299999999996093e+00
	8.473732827748452e-01
	1.299999999999563e+00
	1.299999999999124e+00
	1.299999999996085e+00
	8.473732827748447e-01
	1.299999999999562e+00
	1.299999999997584e+00
	1.299999999992717e+00
	4.108733048221940e-01
	1.299999999995299e+00
	8.473732827181871e-01
	4.108733046948785e-01
	8.463773810286344e-01
	8.000000000000002e-01
	-5.000000000053673e-05
	-5.000132256600238e-05
	1.300000000000000e+00

 17	4.499999999999998e-01
	1.299999999999126e+00
	1.299999999996093e+00
	8.473732827218580e-01
	1.299999999999563e+00
	1.299999999999123e+00
	1.299999999996082e+00
	8.473732827218572e-01
	1.299999999999561e+00
	1.299999999997485e+00
	1.299999999992292e+00
	4.108733044779426e-01
	1.299999999995247e+00
	8.473732826651998e-01
	4.108733043523047e-01
	8.461156626739321e-01
	8.500000000000002e-01
	-5.000000000052621e-05
	-5.000167374112467e-05
	1.300000000000000e+00

 18	3.999999999999998e-01
	1.299999999999126e+00
	1.299999999996093e+00
	8.473732827041391e-01
	1.299999999999563e+00
	1.299999999999123e+00
	1.299999999996081e+00
	8.473732827041381e-01
	1.299999999999562e+00
	1.299999999997387e+00
	1.299999999991868e+00
	4.108733043631616e-01
	1.299999999995197e+00
	8.473732826474810e-01
	4.108733042380827e-01
	8.458668130285452e-01
	9.000000000000002e-01
	-5.000000000039473e-05
	-5.000200742978785e-05
	1.300000000000000e+00

 19	3.499999999999998e-01
	1.299999999999126e+00
	1.299999999996093e+00
	8.473732826744482e-01
	1.299999999999563e+00
	1.299999999999123e+00
	1.299999999996079e+00
	8.473732826744472e-01
	1.299999999999561e+00
	1.299999999997288e+00
	1.299999999991444e+00
	4.108733041701608e-01
	1.299999999995146e+00
	8.473732826177901e-01
	4.108733040460226e-01
	8.456269344890400e-01
	9.500000000000003e-01
	-5.000000000031425e-05
	-5.000232893895913e-05
	1.300000000000000e+00

 20	2.999999999999998e-01
	1.299999999999126e+00
	1.299999999996093e+00
	8.473732826009726e-01
	1.299999999999563e+00
	1.299999999999123e+00
	1.299999999996077e+00
	8.473732826009713e-01
	1.299999999999561e+00
	1.299999999997189e+00
	1.299999999991020e+00
	4.108733036929285e-01
	1.299999999995095e+00
	8.473732825443144e-01
	4.108733035711157e-01
	8.453937743828567e-01
	1.000000000000000e+00
	-5.000000000015115e-05
	-5.000264134323595e-05
	1.300000000000000e+00

 21	2.499999999999998e-01
	1.299999999999126e+00
	1.299999999996093e+00
	8.473732824623165e-01
	1.299999999999563e+00
	1.299999999999122e+00
	1.299999999996075e+00
	8.473732824623150e-01
	1.299999999999561e+00
	1.299999999997091e+00
	1.299999999990595e+00
	4.108733027922233e-01
	1.299999999995043e+00
	8.473732824056583e-01
	4.108733026747999e-01
	8.451659170886200e-01
	1.050000000000000e+00
	-5.000000000033152e-05
	-5.000294657764163e-05
	1.300000000000000e+00

 22	1.999999999999997e-01
	1.299999999999126e+00
	1.299999999996093e+00
	8.473732822297929e-01
	1.299999999999563e+00
	1.299999999999122e+00
	1.299999999996073e+00
	8.473732822297914e-01
	1.299999999999561e+00
	1.299999999996992e+00
	1.299999999990171e+00
	4.108733012814276e-01
	1.299999999994993e+00
	8.473732821731348e-01
	4.108733011713668e-01
	8.449424148292626e-01
	1.100000000000000e+00
	-5.000000000031273e-05
	-5.000324595652952e-05
	1.300000000000000e+00

 23	1.499999999999997e-01
	1.299999999999126e+00
	1.299999999996093e+00
	8.473732818651043e-01
	1.299999999999563e+00
	1.299999999999121e+00
	1.299999999996071e+00
	8.473732818651025e-01
	1.299999999999561e+00
	1.299999999996894e+00
	1.299999999989747e+00
	4.108732989122436e-01
	1.299999999994942e+00
	8.473732818084462e-01
	4.108732988137285e-01
	8.447226006457701e-01
	1.150000000000000e+00
	-5.000000000010043e-05
	-5.000354042810414e-05
	1.300000000000000e+00

 24	9.999999999999964e-02
	1.299999999999126e+00
	1.299999999996093e+00
	8.473732813180199e-01
	1.299999999999563e+00
	1.299999999999121e+00
	1.299999999996069e+00
	8.473732813180180e-01
	1.299999999999560e+00
	1.299999999996795e+00
	1.299999999989323e+00
	4.108732953573624e-01
	1.299999999994891e+00
	8.473732812613618e-01
	4.108732952761716e-01
	8.445059859764608e-01
	1.200000000000000e+00
	-4.999999999986143e-05
	-5.000383071542219e-05
	1.300000000000000e+00

 25	4.999999999999960e-02
	1.299999999999126e+00
	1.299999999996093e+00
	8.473732805223767e-01
	1.299999999999563e+00
	1.299999999999120e+00
	1.299999999996067e+00
	8.473732805223747e-01
	1.299999999999560e+00
	1.299999999996697e+00
	1.299999999988898e+00
	4.108732901879003e-01
	1.299999999994840e+00
	8.473732804657186e-01
	4.108732901319020e-01
	8.442922008354565e-01
	1.250000000000000e+00
	-5.000000000031170e-05
	-5.000411740154777e-05
	1.300000000000000e+00

 26	-4.440892098500626e-16
	1.299999999999126e+00
	1.299999999996093e+00
	8.473732793924372e-01
	1.299999999999563e+00
	1.299999999999120e+00
	1.299999999996066e+00
	8.473732793924351e-01
	1.299999999999560e+00
	1.299999999996598e+00
	1.299999999988474e+00
	4.108732828459529e-01
	1.299999999994789e+00
	8.473732793357791e-01
	4.108732828257350e-01
	8.440809568109670e-01
	1.300000000000000e+00
	-5.000000000036873e-05
	-5.000440098431680e-05
	1.300000000000000e+00

