Title: transistors characterization pmos transistor simulation testbench
Date: Wed Oct 14 22:10:48  2020
Plotname: DC transfer characteristic
Flags: real
No. Variables: 45
No. Points: 26
Variables:
	0	neg_veff	notype
	1	@m1[cbb]	capacitance
	2	@m1[cdb]	capacitance
	3	@m1[cdd]	capacitance
	4	@m1[cdg]	capacitance
	5	@m1[cds]	capacitance
	6	@m1[cgb]	capacitance
	7	@m1[cgd]	capacitance
	8	@m1[cgg]	capacitance
	9	@m1[cgs]	capacitance
	10	@m1[csb]	capacitance
	11	@m1[csd]	capacitance
	12	@m1[csg]	capacitance
	13	@m1[css]	capacitance
	14	@m1[gds]	admittance
	15	@m1[gm]	admittance
	16	@m1[gmbs]	admittance
	17	i(@m1[id])	current
	18	@m1[vbs]	voltage
	19	@m1[vds]	voltage
	20	@m1[vdsat]	voltage
	21	@m1[vgs]	voltage
	22	@m1[vth]	voltage
	23	ao	notype
	24	db20ao	notype
	25	fc	notype
	26	fom	notype
	27	ft	notype
	28	gmid	notype
	29	logfc	notype
	30	logfom	notype
	31	logft	notype
	32	m1#body	voltage
	33	m1#dbody	voltage
	34	m1#gate	voltage
	35	m1#sbody	voltage
	36	nb	voltage
	37	ng	voltage
	38	ns	voltage
	39	v-sweep	voltage
	40	i(vbs)	current
	41	i(vds)	current
	42	i(vgs)	current
	43	vgs_length	notype dims=1
	44	vth	voltage dims=1
Values:
 0	-2.870231262195918e-01
	1.123091005630540e-13
	-1.835957098226638e-18
	1.396792187161077e-22
	-6.759989541326200e-18
	8.595806960334121e-18
	-1.123045117364734e-13
	-1.234959811591511e-22
	1.124607435059868e-13
	-1.562316460173800e-16
	-2.752869482372914e-18
	3.120341726483878e-23
	-1.013619273281030e-17
	1.288903101176366e-17
	1.390653789244524e-11
	9.062165944949690e-09
	2.267610298610222e-09
	3.257449755373991e-10
	2.460476267174272e-12
	1.300000000000000e+00
	4.253812359221979e-02
	5.000000001212968e-02
	3.370231262195919e-01
	6.516478806614216e+02
	5.628025974302663e+01
	1.287416221979799e+05
	3.567840876555046e+05
	1.282481744557380e+04
	2.781981803402906e+01
	5.109718977118511e+00
	5.552405476876980e+00
	4.108051191877872e+00
	1.299999999997540e+00
	1.299999999988945e+00
	1.249999999987870e+00
	1.299999999998770e+00
	1.300000000000000e+00
	1.250000000000000e+00
	1.300000000000000e+00
	-5.000000000000000e-02
	-1.311228903233541e-12
	3.538027824270254e-10
	-2.674571675242987e-11
	2.600000000000000e+01
	-3.370231247320433e-01

 1	-2.370231262195918e-01
	1.093709301204823e-13
	-8.755566283846092e-18
	6.861478031292228e-22
	-3.313964134527533e-17
	4.189452148131829e-17
	-1.093490462945287e-13
	-6.063827658391377e-22
	1.095678181116234e-13
	-2.187712107119028e-16
	-1.312825966975738e-17
	1.533278363471818e-22
	-4.969087420355347e-17
	6.281898054548096e-17
	5.482109425388395e-11
	3.487516675115820e-08
	8.499205916486399e-09
	1.287441827680774e-09
	2.462918757828447e-12
	1.300000000000000e+00
	4.267157499918606e-02
	1.000000000094878e-01
	3.370231262195919e-01
	6.361632730212673e+02
	5.607137185611178e+01
	1.041302821818676e+05
	1.372277962643198e+06
	5.065862654987121e+04
	2.708873208973106e+01
	5.017577045284015e+00
	6.137442089078657e+00
	4.704653411078337e+00
	1.299999999997537e+00
	1.299999999988944e+00
	1.199999999990512e+00
	1.299999999998769e+00
	1.300000000000000e+00
	1.200000000000000e+00
	1.300000000000000e+00
	-1.000000000000000e-01
	-1.311784014745854e-12
	1.309677757817584e-09
	-2.092015449761675e-11
	0.000000000000000e+00
	0.000000000000000e+00

 2	-1.870231262195869e-01
	1.066636733332761e-13
	-4.111933950472829e-17
	3.346302308487537e-21
	-1.601128503246114e-16
	2.012288435270312e-16
	-1.065608989215700e-13
	-2.957853312287970e-21
	1.070930979438737e-13
	-5.321960644503598e-16
	-6.165507220137197e-17
	7.488184132686404e-22
	-2.400794627531142e-16
	3.017337861360709e-16
	2.048604423383258e-10
	1.259887588686474e-07
	2.996990264725715e-08
	4.856130475062029e-09
	2.481570504642150e-12
	1.300000000000000e+00
	4.315873342305444e-02
	1.500000000073938e-01
	3.370231262195871e-01
	6.149979831664022e+02
	5.577747383091846e+01
	8.101294122868811e+04
	4.857713511093268e+06
	1.872364711913274e+05
	2.594426972579193e+01
	4.908554399808070e+00
	6.686431898237706e+00
	5.272390447470487e+00
	1.299999999997518e+00
	1.299999999988934e+00
	1.149999999992606e+00
	1.299999999998759e+00
	1.300000000000000e+00
	1.150000000000000e+00
	1.300000000000000e+00
	-1.500000000000000e-01
	-1.316780018356667e-12
	4.873761200256536e-09
	-1.630340307201550e-11
	0.000000000000000e+00
	0.000000000000000e+00

 3	-1.370231262195730e-01
	1.042155088467342e-13
	-1.832010358933867e-16
	1.585929573052642e-20
	-7.344575224469990e-16
	9.176426990446551e-16
	-1.037576131830222e-13
	-1.404882621720045e-20
	1.056749617023952e-13
	-1.917334470546789e-15
	-2.746946278185950e-16
	3.565855575369371e-21
	-1.101274162674959e-15
	1.375965224637977e-15
	7.018576616740162e-10
	4.193486996898010e-07
	9.774747998164330e-08
	1.713934025312478e-08
	2.542188681786683e-12
	1.300000000000000e+00
	4.475349394422726e-02
	2.000000000057363e-01
	3.370231262195730e-01
	5.974839666059969e+02
	5.552652511096520e+01
	6.086418551333428e+04
	1.545270569758559e+07
	6.315726768158160e+05
	2.446702693899475e+01
	4.784361814647882e+00
	7.189004533382244e+00
	5.800423333234932e+00
	1.299999999997458e+00
	1.299999999988904e+00
	1.099999999994264e+00
	1.299999999998729e+00
	1.300000000000000e+00
	1.100000000000000e+00
	1.300000000000000e+00
	-2.000000000000000e-01
	-1.332933763364963e-12
	1.715334378027264e-08
	-1.264854887494948e-11
	0.000000000000000e+00
	0.000000000000000e+00

 4	-8.702312621953517e-02
	1.022639707716185e-13
	-7.513508229178929e-16
	7.045900522675102e-20
	-3.103375706722622e-15
	3.854656070635289e-15
	-1.003860342320935e-13
	-6.268345391282912e-20
	1.076344535797078e-13
	-7.248356664160411e-15
	-1.126585716607135e-15
	1.595333205600802e-20
	-4.653319643308722e-15
	5.779889406583795e-15
	2.124908091609079e-09
	1.285169621935906e-06
	2.950421831514321e-07
	5.604558749621555e-08
	2.714273250603583e-12
	1.300000000000000e+00
	4.919666234441107e-02
	2.500000000044262e-01
	3.370231262195352e-01
	6.048118631628513e+02
	5.563240602207317e+01
	4.386727756687703e+04
	4.357609389463064e+07
	1.900331085818822e+06
	2.293079043952722e+01
	4.642140682629923e+00
	7.639248298052574e+00
	6.278829272646304e+00
	1.299999999997286e+00
	1.299999999988818e+00
	1.049999999995574e+00
	1.299999999998643e+00
	1.300000000000000e+00
	1.050000000000000e+00
	1.300000000000000e+00
	-2.500000000000000e-01
	-1.378841485433213e-12
	5.605676662749880e-08
	-9.759748564874826e-12
	0.000000000000000e+00
	0.000000000000000e+00

 5	-3.702312621945170e-02
	1.017512241305438e-13
	-2.985898765939850e-15
	2.979063044817206e-19
	-1.270596567219086e-14
	1.569156653182623e-14
	-9.428824222356819e-14
	-2.655983777550352e-19
	1.226358732051413e-13
	-2.834736538319533e-14
	-4.477083141035770e-15
	6.774377069453520e-20
	-1.905176587692368e-14
	2.352878127418876e-14
	5.533771739800843e-09
	3.601682152913595e-06
	8.186531273244158e-07
	1.694519353067406e-07
	3.093081346605686e-12
	1.300000000000000e+00
	5.928229090482207e-02
	3.000000000033914e-01
	3.370231262194517e-01
	6.508548458927251e+02
	5.626968285410228e+01
	2.806344300515306e+04
	9.934976366458605e+07
	4.674207498185995e+06
	2.125488945519482e+01
	4.448140952024136e+00
	7.997166838337749e+00
	6.669707987756025e+00
	1.299999999996907e+00
	1.299999999988628e+00
	9.999999999966086e-01
	1.299999999998454e+00
	1.300000000000000e+00
	1.000000000000000e+00
	1.300000000000000e+00
	-3.000000000000000e-01
	-1.479871780674102e-12
	1.694609619294996e-07
	-7.478018204665204e-12
	0.000000000000000e+00
	0.000000000000000e+00

 6	1.297687378067264e-02
	1.040822404229926e-13
	-9.712860068995939e-15
	1.167598493357878e-18
	-4.246105836086503e-14
	5.217275083136761e-14
	-7.980599826530127e-14
	-1.043097525901266e-18
	1.771589531423392e-13
	-9.735191177951199e-14
	-1.456338208869543e-14
	2.706558068522853e-19
	-6.366706172146983e-14
	7.823017315435839e-14
	1.229400092611164e-08
	8.739463368825403e-06
	1.976355793802971e-06
	4.636176029765647e-07
	3.654854197066015e-12
	1.300000000000000e+00
	7.761443194820539e-02
	3.500000000025723e-01
	3.370231262193273e-01
	7.108721905383431e+02
	5.703583049747863e+01
	1.875144680342976e+04
	1.480016788628647e+08
	7.851303986886640e+06
	1.885058572563987e+01
	4.273034782170670e+00
	8.170266641859435e+00
	6.894941792704294e+00
	1.299999999996345e+00
	1.299999999988348e+00
	9.499999999974278e-01
	1.299999999998173e+00
	1.300000000000000e+00
	9.500000000000001e-01
	1.300000000000000e+00
	-3.500000000000000e-01
	-1.629640866696036e-12
	4.636250146907668e-07
	-5.671907388205000e-12
	0.000000000000000e+00
	0.000000000000000e+00

 7	6.297687378076394e-02
	1.067389683518255e-13
	-1.887447392452854e-14
	3.488378485545315e-18
	-8.406902889644890e-14
	1.029400144424919e-13
	-5.956512575610647e-14
	-3.134704552581517e-18
	2.618076201358261e-13
	-2.022393596751670e-13
	-2.829936867119048e-14
	8.386893320509152e-19
	-1.260524002699903e-13
	1.543509302518487e-13
	2.350515993251890e-08
	1.733474749411441e-05
	3.918570582900988e-06
	1.102290407663972e-06
	4.063194225523148e-12
	1.300000000000000e+00
	1.047003015103915e-01
	4.000000000019210e-01
	3.370231262192360e-01
	7.374868983610763e+02
	5.735508618737608e+01
	1.817028600030488e+04
	1.657207386710421e+08
	1.053793143800333e+07
	1.572611661463248e+01
	4.259361763157055e+00
	8.219376860421830e+00
	7.022755368634788e+00
	1.299999999995937e+00
	1.299999999988144e+00
	8.999999999980790e-01
	1.299999999997969e+00
	1.300000000000000e+00
	9.000000000000001e-01
	1.300000000000000e+00
	-4.000000000000000e-01
	-1.738553745411764e-12
	1.102296551845232e-06
	-4.236166972759747e-12
	0.000000000000000e+00
	0.000000000000000e+00

 8	1.129768737807466e-01
	1.067720715731802e-13
	-2.425115052637974e-14
	7.441046184791195e-18
	-1.089743340954839e-13
	1.332180435756788e-13
	-4.616188219623793e-14
	-6.724090342446067e-18
	3.179658449311444e-13
	-2.717972386445641e-13
	-3.635903885056257e-14
	1.838967952263149e-18
	-1.633898888258780e-13
	1.997470887084883e-13
	3.948290345953737e-08
	2.816183662573822e-05
	6.392035617329825e-06
	2.234692031973175e-06
	3.989697461292963e-12
	1.300000000000000e+00
	1.386250450507105e-01
	4.500000000013983e-01
	3.370231262192533e-01
	7.132666080294441e+02
	5.706503785520673e+01
	2.358435686434296e+04
	1.776412943321151e+08
	1.409615396428261e+07
	1.260211081563308e+01
	4.372624037712301e+00
	8.249543928874795e+00
	7.149100634645809e+00
	1.299999999996010e+00
	1.299999999988180e+00
	8.499999999986018e-01
	1.299999999998005e+00
	1.300000000000000e+00
	8.500000000000001e-01
	1.300000000000000e+00
	-4.500000000000000e-01
	-1.718958309027130e-12
	2.234697086833833e-06
	-3.083311383988985e-12
	0.000000000000000e+00
	0.000000000000000e+00

 9	1.629768737806507e-01
	1.056009152738507e-13
	-2.666203642825277e-14
	1.269717589317398e-17
	-1.201742323990263e-13
	1.468235716513859e-13
	-3.896780769407356e-14
	-1.151335856812693e-17
	3.459277536736989e-13
	-3.069484326210572e-13
	-3.997107115152440e-14
	3.185853655781038e-18
	-1.801750338796496e-13
	2.201429191775182e-13
	5.983894503937655e-08
	3.928372314421005e-05
	8.983774934246093e-06
	3.922805028102527e-06
	3.555378214059601e-12
	1.300000000000000e+00
	1.766427786997506e-01
	5.000000000009713e-01
	3.370231262193493e-01
	6.564909043493282e+02
	5.634457426675031e+01
	3.243093736241725e+04
	1.809936277563182e+08
	1.807371237218507e+07
	1.001419210559432e+01
	4.510959501415561e+00
	8.257663284930045e+00
	7.257047366571038e+00
	1.299999999996445e+00
	1.299999999988397e+00
	7.999999999990287e-01
	1.299999999998222e+00
	1.300000000000000e+00
	8.000000000000000e-01
	1.300000000000000e+00
	-4.999999999999999e-01
	-1.603106536407495e-12
	3.922809140313346e-06
	-2.141842259106852e-12
	0.000000000000000e+00
	0.000000000000000e+00

 10	2.129768737805466e-01
	1.042213856581691e-13
	-2.798326673083061e-14
	1.913474939055498e-17
	-1.262393547698448e-13
	1.542034867512849e-13
	-3.428934381428676e-14
	-1.738686271658956e-17
	3.621564455903308e-13
	-3.278497149133275e-13
	-4.194877511305176e-14
	4.842859326397832e-18
	-1.892593822190348e-13
	2.312033144727601e-13
	8.396203487136398e-08
	4.957029814871062e-05
	1.144287611201616e-05
	6.148620380381689e-06
	3.086420008457935e-12
	1.300000000000000e+00
	2.166278544257218e-01
	5.500000000006114e-01
	3.370231262194533e-01
	5.903894328508828e+02
	5.542277151235589e+01
	4.332633497717758e+04
	1.756261958432719e+08
	2.178439201336408e+07
	8.062019620998855e+00
	4.636751953135281e+00
	8.244589294381489e+00
	7.338145443595818e+00
	1.299999999996914e+00
	1.299999999988632e+00
	7.499999999993886e-01
	1.299999999998457e+00
	1.300000000000000e+00
	7.500000000000001e-01
	1.300000000000000e+00
	-5.499999999999999e-01
	-1.478095423834702e-12
	6.148623730321389e-06
	-1.348476885709715e-12
	0.000000000000000e+00
	0.000000000000000e+00

 11	2.629768737804759e-01
	1.028544120612367e-13
	-2.889252322547189e-14
	2.683133956979438e-17
	-1.303682664498636e-13
	1.592339583357657e-13
	-3.065358933778310e-14
	-2.441389896130010e-17
	3.735117797623965e-13
	-3.428337765256521e-13
	-4.330829949798174e-14
	6.828699218912316e-18
	-1.954388841192569e-13
	2.387403549180198e-13
	1.113624297891495e-07
	5.877823107728993e-05
	1.370093869879406e-05
	8.861670531040845e-06
	2.762234885267389e-12
	1.300000000000000e+00
	2.573857385733899e-01
	6.000000000002945e-01
	3.370231262195241e-01
	5.278102425439082e+02
	5.444955627535923e+01
	5.564889621052559e+04
	1.661243340739400e+08
	2.504565191517999e+07
	6.632861250189827e+00
	4.745456554574914e+00
	8.220433253041275e+00
	7.398732340456781e+00
	1.299999999997238e+00
	1.299999999988794e+00
	6.999999999997055e-01
	1.299999999998619e+00
	1.300000000000000e+00
	7.000000000000001e-01
	1.300000000000000e+00
	-6.000000000000000e-01
	-1.391609050216402e-12
	8.861673305687417e-06
	-6.494804694057166e-13
	0.000000000000000e+00
	0.000000000000000e+00

 12	3.129768737804381e-01
	1.015273908776139e-13
	-2.959649893129047e-14
	3.595955527987757e-17
	-1.335482749683113e-13
	1.631088143443219e-13
	-2.757135242671439e-14
	-3.275212137220653e-17
	3.823114365504049e-13
	-3.547073320023183e-13
	-4.435953951960905e-14
	9.188334578970309e-18
	-2.001937433924167e-13
	2.445440945774468e-13
	1.417521337216758e-07
	6.703857915896989e-05
	1.576964950792037e-05
	1.201063761780711e-05
	2.597699833017941e-12
	1.300000000000000e+00
	2.983709233537813e-01
	6.499999999999976e-01
	3.370231262195619e-01
	4.729281838578687e+02
	5.349590392586671e+01
	6.915035907209900e+04
	1.557709183667221e+08
	2.790793115497260e+07
	5.581600352305838e+00
	4.839794439580923e+00
	8.192486380347063e+00
	7.445727642963679e+00
	1.299999999997402e+00
	1.299999999988876e+00
	6.500000000000025e-01
	1.299999999998701e+00
	1.300000000000000e+00
	6.500000000000000e-01
	1.300000000000000e+00
	-6.500000000000000e-01
	-1.347755240743709e-12
	1.201063997417945e-05
	5.329070518200751e-15
	0.000000000000000e+00
	0.000000000000000e+00

 13	3.629768737804303e-01
	1.002354665913535e-13
	-3.017159142185730e-14
	4.675291866067342e-17
	-1.361405292453183e-13
	1.662653677485150e-13
	-2.484686698926059e-14
	-4.261550849399538e-17
	3.894792006866788e-13
	-3.645897181889242e-13
	-4.521700818023565e-14
	1.198319462402400e-17
	-2.040652318921726e-13
	2.492702568777842e-13
	1.750022777743251e-07
	7.453340898663316e-05
	1.767560543363138e-05
	1.555280066465799e-05
	2.558619982551136e-12
	1.300000000000000e+00
	3.393740047210019e-01
	6.999999999996973e-01
	3.370231262195698e-01
	4.258996507619632e+02
	5.258614567904181e+01
	8.374733266766330e+04
	1.459584445083803e+08
	3.045698061616230e+07
	4.792282148642339e+00
	4.922970983754703e+00
	8.164229226403855e+00
	7.483686846907577e+00
	1.299999999997441e+00
	1.299999999988896e+00
	6.000000000003027e-01
	1.299999999998721e+00
	1.300000000000000e+00
	6.000000000000000e-01
	1.300000000000000e+00
	-7.000000000000001e-01
	-1.337263633161001e-12
	1.555280271922927e-05
	6.676881270095691e-13
	0.000000000000000e+00
	0.000000000000000e+00

 14	4.129768737804523e-01
	9.897116578381762e-14
	-3.065520891030704e-14
	5.950304066918388e-17
	-1.383183074752362e-13
	1.689140133448741e-13
	-2.237921060104954e-14
	-5.427156616190045e-17
	3.954848319872667e-13
	-3.730513498200553e-13
	-4.593674627246104e-14
	1.529026221224856e-17
	-2.073128661026996e-13
	2.532343221129484e-13
	2.110875818654235e-07
	8.139884042901895e-05
	1.943986083423704e-05
	1.945351640970083e-05
	2.657429831742775e-12
	1.300000000000000e+00
	3.803316890775342e-01
	7.499999999993653e-01
	3.370231262195478e-01
	3.856164332817734e+02
	5.172311066703912e+01
	9.942844622292354e+04
	1.370656470650041e+08
	3.275733168103875e+07
	4.184273871865552e+00
	4.997510652709677e+00
	8.136928620656983e+00
	7.515308518137304e+00
	1.299999999997343e+00
	1.299999999988846e+00
	5.500000000006348e-01
	1.299999999998671e+00
	1.300000000000000e+00
	5.499999999999999e-01
	1.300000000000000e+00
	-7.500000000000001e-01
	-1.363686941147080e-12
	1.945351824622708e-05
	1.399769189447397e-12
	0.000000000000000e+00
	0.000000000000000e+00

 15	4.629768737805405e-01
	9.772857674025703e-14
	-3.106988561290236e-14
	7.456785152728433e-17
	-1.401845015653612e-13
	1.711798193267363e-13
	-2.010620972472805e-14
	-6.804885979076769e-17
	4.006144512407374e-13
	-3.804401926562186e-13
	-4.655248140262662e-14
	1.920426331619510e-17
	-2.100905543148759e-13
	2.566238314541863e-13
	2.500518258252204e-07
	8.772232715135758e-05
	2.107615157687025e-05
	2.368366928746151e-05
	3.057110120607831e-12
	1.300000000000000e+00
	4.212353963686009e-01
	7.999999999989562e-01
	3.370231262194596e-01
	3.508165831697353e+02
	5.090160228731713e+01
	1.162178992438257e+05
	1.290817429544236e+08
	3.485007079106396e+07
	3.703916233866646e+00
	5.065273020861315e+00
	8.110864820927544e+00
	7.542203664618740e+00
	1.299999999996943e+00
	1.299999999988646e+00
	5.000000000010438e-01
	1.299999999998471e+00
	1.300000000000000e+00
	4.999999999999999e-01
	1.300000000000000e+00
	-8.000000000000002e-01
	-1.470268351511095e-12
	2.368367096527856e-05
	2.301936419257800e-12
	0.000000000000000e+00
	0.000000000000000e+00

 16	5.129768737808225e-01
	9.650336482718563e-14
	-3.143081035910275e-14
	9.238547721940716e-17
	-1.418080360334593e-13
	1.731464609153426e-13
	-1.798563871928675e-14
	-8.434979765618703e-17
	4.050610315563077e-13
	-3.869910430393648e-13
	-4.708691574879612e-14
	2.384141764328839e-17
	-2.125011899618241e-13
	2.595642642929769e-13
	2.919947818857609e-07
	9.356009728441892e-05
	2.259339355889669e-05
	2.821766267019608e-05
	4.331202063667661e-12
	1.300000000000000e+00
	4.620930458050229e-01
	8.499999999983749e-01
	3.370231262191778e-01
	3.204170180035034e+02
	5.011431148586823e+01
	1.341639264532920e+05
	1.218877216896655e+08
	3.676125521569444e+07
	3.315657231356675e+00
	5.127635759884591e+00
	8.085959959342787e+00
	7.565390331983464e+00
	1.299999999995669e+00
	1.299999999988009e+00
	4.500000000016250e-01
	1.299999999997834e+00
	1.300000000000000e+00
	4.499999999999998e-01
	1.300000000000000e+00
	-8.500000000000002e-01
	-1.809996597046393e-12
	2.821766423341847e-05
	3.583577878885080e-12
	0.000000000000000e+00
	0.000000000000000e+00

 17	5.629768737816789e-01
	9.529233506431224e-14
	-3.174885271134488e-14
	1.134930412937362e-16
	-1.432381691623286e-13
	1.748735288323798e-13
	-1.598722011463084e-14
	-1.036679801703511e-16
	4.089623469398380e-13
	-3.928714588450368e-13
	-4.755626223833652e-14
	2.934454367130831e-17
	-2.146180774832925e-13
	2.621449951779577e-13
	3.370745967788975e-07
	9.895171752030918e-05
	2.399795971753013e-05
	3.303224743446068e-05
	8.196998635412456e-12
	1.300000000000000e+00
	5.029150282886351e-01
	8.999999999973848e-01
	3.370231262183213e-01
	2.935602933768874e+02
	4.935394626101917e+01
	1.533384891774847e+05
	1.153573730411173e+08
	3.850881404763377e+07
	2.995609599880826e+00
	5.185651179898995e+00
	8.062045357580477e+00
	7.585560143901896e+00
	1.299999999991803e+00
	1.299999999986077e+00
	4.000000000026153e-01
	1.299999999995902e+00
	1.300000000000000e+00
	3.999999999999998e-01
	1.300000000000000e+00
	-9.000000000000002e-01
	-2.840894186562082e-12
	3.303224891459974e-05
	5.767053501415376e-12
	0.000000000000000e+00
