Title: four transistor modified wilson bjt current mirror simulation testbench (dc)
Date: Fri Jul  3 18:39:14  2020
Plotname: DC transfer characteristic
Flags: real
No. Variables: 8
No. Points: 51
Variables:
	0	n2	voltage
	1	n1	voltage
	2	n3	voltage
	3	n4	voltage
	4	n_pos	voltage
	5	v-sweep	voltage
	6	i(v1)	current
	7	i(v2)	current
Values:
 0	0.000000000000000e+00
	1.230597505425847e-03
	6.271838247219982e-01
	3.742084696098956e-01
	5.000000000000000e+00
	0.000000000000000e+00
	-5.000000000000000e-05
	1.604039163944688e-05

 1	1.000000000000000e-01
	1.012305951616188e-01
	7.271838242638147e-01
	4.726926383183127e-01
	5.000000000000000e+00
	1.000000000000000e-01
	-5.000000000000000e-05
	1.604039022776617e-05

 2	2.000000000000000e-01
	2.012305900125182e-01
	8.271838233098995e-01
	5.683503194903821e-01
	5.000000000000000e+00
	2.000000000000000e-01
	-5.000000000000000e-05
	1.604038763629446e-05

 3	3.000000000000000e-01
	3.012304648029301e-01
	9.271837995382368e-01
	6.217731982926979e-01
	5.000000000000000e+00
	3.000000000000000e-01
	-5.000000000000000e-05
	1.604033347438105e-05

 4	4.000000000000000e-01
	4.012248166961979e-01
	1.027182698085189e+00
	6.260771501291846e-01
	5.000000000000000e+00
	4.000000000000000e-01
	-5.000000000000000e-05
	1.603789329937503e-05

 5	5.000000000000000e-01
	5.009639474867098e-01
	1.127131525038022e+00
	6.260417071993705e-01
	5.000000000000000e+00
	5.000000000000000e-01
	-5.000000000000000e-05
	1.592504215402204e-05

 6	6.000000000000000e-01
	5.929386610980283e-01
	1.225329479948755e+00
	6.325953751631381e-01
	5.000000000000000e+00
	6.000000000000000e-01
	-5.000000000000000e-05
	1.206676328115972e-05

 7	7.000000000000000e-01
	6.491649074419114e-01
	1.305473719126757e+00
	6.565275157469778e-01
	5.000000000000000e+00
	7.000000000000000e-01
	-5.000000000000000e-05
	-1.860559949114040e-05

 8	7.999999999999999e-01
	6.655774706876330e-01
	1.331333487115733e+00
	6.659814532485038e-01
	5.000000000000000e+00
	7.999999999999999e-01
	-5.000000000000000e-05
	-4.786838892859233e-05

 9	8.999999999999999e-01
	6.659822009896885e-01
	1.332192985571628e+00
	6.664374492680140e-01
	5.000000000000000e+00
	8.999999999999999e-01
	-5.000000000000000e-05
	-4.990110483427926e-05

 10	9.999999999999999e-01
	6.657304764926983e-01
	1.331847969953284e+00
	6.663443925906277e-01
	5.000000000000000e+00
	9.999999999999999e-01
	-5.000000000000000e-05
	-4.997994028418505e-05

 11	1.100000000000000e+00
	6.657262822109904e-01
	1.331787798359929e+00
	6.662884238530372e-01
	5.000000000000000e+00
	1.100000000000000e+00
	-5.000000000000000e-05
	-4.998795911975085e-05

 12	1.200000000000000e+00
	6.657257753294560e-01
	1.331739903813432e+00
	6.662410621033130e-01
	5.000000000000000e+00
	1.200000000000000e+00
	-5.000000000000000e-05
	-4.999036507516949e-05

 13	1.300000000000000e+00
	6.657262462818866e-01
	1.331693001834587e+00
	6.661937123903887e-01
	5.000000000000000e+00
	1.300000000000000e+00
	-5.000000000000000e-05
	-4.999206074737563e-05

 14	1.400000000000000e+00
	6.657266888228118e-01
	1.331646147480143e+00
	6.661464386538293e-01
	5.000000000000000e+00
	1.400000000000000e+00
	-5.000000000000000e-05
	-4.999365107233508e-05

 15	1.500000000000000e+00
	6.657271259278089e-01
	1.331599372693504e+00
	6.660992498750395e-01
	5.000000000000000e+00
	1.500000000000000e+00
	-5.000000000000000e-05
	-4.999522139077533e-05

 16	1.600000000000000e+00
	6.657275609124973e-01
	1.331552681972423e+00
	6.660521472387488e-01
	5.000000000000000e+00
	1.600000000000000e+00
	-5.000000000000000e-05
	-4.999678399155583e-05

 17	1.700000000000000e+00
	6.657279942898001e-01
	1.331506075740873e+00
	6.660051306565160e-01
	5.000000000000000e+00
	1.700000000000000e+00
	-5.000000000000000e-05
	-4.999834076539231e-05

 18	1.800000000000000e+00
	6.657284261248548e-01
	1.331459553774680e+00
	6.659581998392143e-01
	5.000000000000000e+00
	1.800000000000000e+00
	-5.000000000000000e-05
	-4.999989195187164e-05

 19	1.900000000000001e+00
	6.657288564341776e-01
	1.331413115780960e+00
	6.659113544776399e-01
	5.000000000000000e+00
	1.900000000000001e+00
	-5.000000000000000e-05
	-5.000143761137962e-05

 20	2.000000000000000e+00
	6.657292852279462e-01
	1.331366761459265e+00
	6.658645942613004e-01
	5.000000000000000e+00
	2.000000000000000e+00
	-5.000000000000000e-05
	-5.000297778087629e-05

 21	2.100000000000001e+00
	6.657297125149612e-01
	1.331320490508971e+00
	6.658179188809369e-01
	5.000000000000000e+00
	2.100000000000001e+00
	-5.000000000000000e-05
	-5.000451249238464e-05

 22	2.200000000000001e+00
	6.657301383035702e-01
	1.331274302630435e+00
	6.657713280287111e-01
	5.000000000000000e+00
	2.200000000000001e+00
	-5.000000000000000e-05
	-5.000604177606111e-05

 23	2.300000000000001e+00
	6.657305626019148e-01
	1.331228197525466e+00
	6.657248213984510e-01
	5.000000000000000e+00
	2.300000000000001e+00
	-5.000000000000000e-05
	-5.000756566145846e-05

 24	2.400000000000001e+00
	6.657309854180163e-01
	1.331182174897382e+00
	6.656783986855973e-01
	5.000000000000000e+00
	2.400000000000001e+00
	-5.000000000000000e-05
	-5.000908417772003e-05

 25	2.500000000000001e+00
	6.657314067598308e-01
	1.331136234451064e+00
	6.656320595872376e-01
	5.000000000000000e+00
	2.500000000000001e+00
	-5.000000000000000e-05
	-5.001059735356591e-05

 26	2.600000000000001e+00
	6.657318266352320e-01
	1.331090375892955e+00
	6.655858038020844e-01
	5.000000000000000e+00
	2.600000000000001e+00
	-5.000000000000000e-05
	-5.001210521759128e-05

 27	2.700000000000001e+00
	6.657322450520399e-01
	1.331044598931084e+00
	6.655396310305106e-01
	5.000000000000000e+00
	2.700000000000001e+00
	-5.000000000000000e-05
	-5.001360779815540e-05

 28	2.800000000000001e+00
	6.657326620180081e-01
	1.330998903274992e+00
	6.654935409744420e-01
	5.000000000000000e+00
	2.800000000000001e+00
	-5.000000000000000e-05
	-5.001510512329834e-05

 29	2.900000000000001e+00
	6.657330775408187e-01
	1.330953288635779e+00
	6.654475333374398e-01
	5.000000000000000e+00
	2.900000000000001e+00
	-5.000000000000000e-05
	-5.001659722092833e-05

 30	3.000000000000001e+00
	6.657334916281431e-01
	1.330907754726131e+00
	6.654016078246927e-01
	5.000000000000000e+00
	3.000000000000001e+00
	-5.000000000000000e-05
	-5.001808411877319e-05

 31	3.100000000000001e+00
	6.657339042875441e-01
	1.330862301260193e+00
	6.653557641429155e-01
	5.000000000000000e+00
	3.100000000000001e+00
	-5.000000000000000e-05
	-5.001956584430401e-05

 32	3.200000000000002e+00
	6.657343155265641e-01
	1.330816927953659e+00
	6.653100020003947e-01
	5.000000000000000e+00
	3.200000000000002e+00
	-5.000000000000000e-05
	-5.002104242483227e-05

 33	3.300000000000002e+00
	6.657347253526810e-01
	1.330771634523734e+00
	6.652643211070208e-01
	5.000000000000000e+00
	3.300000000000002e+00
	-5.000000000000000e-05
	-5.002251388744741e-05

 34	3.400000000000002e+00
	6.657351337733274e-01
	1.330726420689126e+00
	6.652187211742129e-01
	5.000000000000000e+00
	3.400000000000002e+00
	-5.000000000000000e-05
	-5.002398025909315e-05

 35	3.500000000000002e+00
	6.657355407958634e-01
	1.330681286169983e+00
	6.651732019148955e-01
	5.000000000000000e+00
	3.500000000000002e+00
	-5.000000000000000e-05
	-5.002544156648425e-05

 36	3.600000000000002e+00
	6.657359464276261e-01
	1.330636230687976e+00
	6.651277630435548e-01
	5.000000000000000e+00
	3.600000000000002e+00
	-5.000000000000000e-05
	-5.002689783613421e-05

 37	3.700000000000002e+00
	6.657363506758693e-01
	1.330591253966207e+00
	6.650824042761774e-01
	5.000000000000000e+00
	3.700000000000002e+00
	-5.000000000000000e-05
	-5.002834909445940e-05

 38	3.800000000000002e+00
	6.657367535478242e-01
	1.330546355729260e+00
	6.650371253302608e-01
	5.000000000000000e+00
	3.800000000000002e+00
	-5.000000000000000e-05
	-5.002979536752232e-05

 39	3.900000000000002e+00
	6.657371550506563e-01
	1.330501535703146e+00
	6.649919259247862e-01
	5.000000000000000e+00
	3.900000000000002e+00
	-5.000000000000000e-05
	-5.003123668137155e-05

 40	4.000000000000002e+00
	6.657375551914891e-01
	1.330456793615316e+00
	6.649468057802378e-01
	5.000000000000000e+00
	4.000000000000002e+00
	-5.000000000000000e-05
	-5.003267306182674e-05

 41	4.100000000000001e+00
	6.657379539773929e-01
	1.330412129194658e+00
	6.649017646185613e-01
	5.000000000000000e+00
	4.100000000000001e+00
	-5.000000000000000e-05
	-5.003410453452016e-05

 42	4.200000000000001e+00
	6.657383514153798e-01
	1.330367542171437e+00
	6.648568021631490e-01
	5.000000000000000e+00
	4.200000000000001e+00
	-5.000000000000000e-05
	-5.003553112481345e-05

 43	4.300000000000001e+00
	6.657387475124157e-01
	1.330323032277326e+00
	6.648119181388378e-01
	5.000000000000000e+00
	4.300000000000001e+00
	-5.000000000000000e-05
	-5.003695285804748e-05

 44	4.400000000000000e+00
	6.657391422754426e-01
	1.330278599245466e+00
	6.647671122719854e-01
	5.000000000000000e+00
	4.400000000000000e+00
	-5.000000000000000e-05
	-5.003836975929938e-05

 45	4.500000000000000e+00
	6.657395357113247e-01
	1.330234242810286e+00
	6.647223842902827e-01
	5.000000000000000e+00
	4.500000000000000e+00
	-5.000000000000000e-05
	-5.003978185346593e-05

 46	4.600000000000000e+00
	6.657399278268946e-01
	1.330189962707650e+00
	6.646777339229002e-01
	5.000000000000000e+00
	4.600000000000000e+00
	-5.000000000000000e-05
	-5.004118916534672e-05

 47	4.699999999999999e+00
	6.657403186289106e-01
	1.330145758674739e+00
	6.646331609003809e-01
	5.000000000000000e+00
	4.699999999999999e+00
	-5.000000000000000e-05
	-5.004259171943605e-05

 48	4.799999999999999e+00
	6.657407081241458e-01
	1.330101630450180e+00
	6.645886649547383e-01
	5.000000000000000e+00
	4.799999999999999e+00
	-5.000000000000000e-05
	-5.004398954026985e-05

 49	4.899999999999999e+00
	6.657410963192572e-01
	1.330057577773832e+00
	6.645442458192935e-01
	5.000000000000000e+00
	4.899999999999999e+00
	-5.000000000000000e-05
	-5.004538265196771e-05

 50	4.999999999999998e+00
	6.657414832208968e-01
	1.330013600386977e+00
	6.644999032288140e-01
	5.000000000000000e+00
	4.999999999999998e+00
	-5.000000000000000e-05
	-5.004677107866312e-05

